time	V(D,G)	V(a1)	V(l)	Ix(U1:G)
Step Information: A=10µ  (Step: 1/3)
0.000000000000000e+00	3.155487e-22	1.845498e-22	-3.690997e-24	-3.722345e-26
5.919902132459853e-07	6.967375e-06	9.245199e-06	2.204559e-08	2.096612e-10
1.669873486664669e-06	5.641362e-05	7.135713e-05	7.885106e-08	6.768189e-10
2.232324941459009e-06	1.011960e-04	1.269254e-04	1.125699e-07	9.213210e-10
2.779783839142598e-06	1.586116e-04	1.978785e-04	1.480739e-07	1.159442e-09
3.439403274980920e-06	2.462635e-04	3.058994e-04	1.943705e-07	1.446517e-09
4.256366641057252e-06	3.818263e-04	4.726168e-04	2.570367e-07	1.802325e-09
5.286550010429969e-06	5.949374e-04	7.342613e-04	3.444544e-07	2.251387e-09
6.564561815326268e-06	9.245872e-04	1.138419e-03	4.659052e-07	2.809089e-09
8.165510509658665e-06	1.439493e-03	1.768964e-03	6.383382e-07	3.508664e-09
1.015550080921927e-05	2.237421e-03	2.745114e-03	8.840901e-07	4.379711e-09
1.264518662564611e-05	3.481820e-03	4.266118e-03	1.240494e-06	5.471766e-09
1.574626559926273e-05	5.413651e-03	6.625465e-03	1.760329e-06	6.835519e-09
1.962456536475885e-05	8.424497e-03	1.029981e-02	2.528617e-06	8.546485e-09
2.446336688156800e-05	1.310527e-02	1.600777e-02	3.670648e-06	1.068935e-08
3.051726671126409e-05	2.040136e-02	2.489789e-02	5.384946e-06	1.338212e-08
3.808404445627907e-05	3.176113e-02	3.872751e-02	7.971115e-06	1.676263e-08
4.756268884721782e-05	4.948378e-02	6.028218e-02	1.190011e-05	2.100864e-08
5.943783798488506e-05	7.713069e-02	9.386814e-02	1.789217e-05	2.631110e-08
7.434846072078245e-05	1.203430e-01	1.462908e-01	2.707414e-05	3.286574e-08
9.309360635626529e-05	1.872585e-01	2.273423e-01	4.118766e-05	4.087210e-08
1.130936063562653e-04	2.735664e-01	3.317083e-01	5.935237e-05	4.913888e-08
1.330936063562653e-04	3.756013e-01	4.548787e-01	8.067806e-05	5.718767e-08
1.530936063562653e-04	4.933783e-01	5.968059e-01	1.051126e-04	6.508426e-08
1.730936063562653e-04	6.266576e-01	7.571384e-01	1.325997e-04	7.285755e-08
1.930936063562653e-04	7.752009e-01	9.355285e-01	1.630815e-04	8.051416e-08
2.130936063562653e-04	9.387713e-01	1.131633e+00	1.965010e-04	8.805485e-08
2.330936063562653e-04	1.117133e+00	1.345110e+00	2.328015e-04	9.547966e-08
2.530936063562652e-04	1.310053e+00	1.575625e+00	2.719270e-04	1.027887e-07
2.730936063562652e-04	1.517297e+00	1.822845e+00	3.138221e-04	1.099823e-07
2.930936063562652e-04	1.738635e+00	2.086441e+00	3.584322e-04	1.170607e-07
3.130936063562652e-04	1.973836e+00	2.366088e+00	4.057031e-04	1.240244e-07
3.330936063562652e-04	2.222672e+00	2.661464e+00	4.555813e-04	1.308739e-07
3.530936063562652e-04	2.484916e+00	2.972251e+00	5.080141e-04	1.376098e-07
3.730936063562652e-04	2.760343e+00	3.298136e+00	5.629490e-04	1.442328e-07
3.930936063562652e-04	3.048728e+00	3.638807e+00	6.203347e-04	1.507436e-07
4.130936063562652e-04	3.349851e+00	3.993958e+00	6.801199e-04	1.571428e-07
4.330936063562652e-04	3.663490e+00	4.363286e+00	7.422543e-04	1.634313e-07
4.530936063562652e-04	3.989425e+00	4.746491e+00	8.066882e-04	1.696098e-07
4.730936063562652e-04	4.327440e+00	5.143277e+00	8.733721e-04	1.756791e-07
4.930936063562652e-04	4.677320e+00	5.553351e+00	9.422576e-04	1.816400e-07
5.130936063562652e-04	5.038848e+00	5.976425e+00	1.013297e-03	1.874934e-07
5.330936063562652e-04	5.411815e+00	6.412213e+00	1.086442e-03	1.932400e-07
5.530936063562653e-04	5.796008e+00	6.860434e+00	1.161646e-03	1.988808e-07
5.730936063562653e-04	6.191219e+00	7.320808e+00	1.238864e-03	2.044165e-07
5.930936063562654e-04	6.597241e+00	7.793061e+00	1.318048e-03	2.098482e-07
6.330936063562655e-04	7.440894e+00	8.772122e+00	1.482140e-03	2.204026e-07
6.730936063562656e-04	8.325346e+00	9.795485e+00	1.653566e-03	2.305510e-07
7.130936063562657e-04	9.249002e+00	1.086107e+01	1.831983e-03	2.403007e-07
7.530936063562658e-04	1.021029e+01	1.196686e+01	2.017053e-03	2.496587e-07
7.930936063562659e-04	1.120768e+01	1.311088e+01	2.208450e-03	2.586324e-07
8.530936063562661e-04	1.276814e+01	1.489440e+01	2.506712e-03	2.726986e-07
8.730936063562661e-04	1.330296e+01	1.550417e+01	2.609472e-03	2.821533e-07
8.805936063562661e-04	1.350614e+01	1.573556e+01	2.649480e-03	2.960215e-07
9.070553230399083e-04	1.423276e+01	1.656199e+01	2.793587e-03	3.635120e-07
9.670553230399085e-04	1.592601e+01	1.848246e+01	3.130537e-03	5.352988e-07
1.027055323039909e-03	1.768260e+01	2.046672e+01	3.479141e-03	7.172708e-07
1.107055323039909e-03	2.011596e+01	2.320265e+01	3.959961e-03	9.698116e-07
1.187055323039909e-03	2.264412e+01	2.603031e+01	4.456970e-03	1.231562e-06
1.267055323039909e-03	2.525712e+01	2.893784e+01	4.968058e-03	1.501113e-06
1.367055323039910e-03	2.862819e+01	3.266766e+01	5.623730e-03	1.847360e-06
1.467055323039910e-03	3.209852e+01	3.648387e+01	6.294785e-03	2.204021e-06
1.469555323039910e-03	3.218627e+01	3.658010e+01	6.312055e-03	2.221794e-06
1.474555323039910e-03	3.236150e+01	3.677227e+01	6.350718e-03	2.311713e-06
1.477609352051014e-03	3.246743e+01	3.688868e+01	6.384038e-03	2.473620e-06
1.480535334700404e-03	3.256638e+01	3.699794e+01	6.436564e-03	2.866814e-06
1.483666028384793e-03	3.266729e+01	3.711044e+01	6.535156e-03	3.743826e-06
1.487065654353341e-03	3.276819e+01	3.722497e+01	6.717583e-03	5.483737e-06
1.490930563550103e-03	3.287300e+01	3.734687e+01	7.049826e-03	8.317047e-06
1.492460533798849e-03	3.290875e+01	3.738997e+01	7.222123e-03	9.970340e-06
1.492718037498535e-03	3.291433e+01	3.739683e+01	7.254126e-03	1.028784e-05
1.492741933355520e-03	3.291193e+01	3.739463e+01	7.264396e-03	1.060655e-05
1.492789725069489e-03	3.289191e+01	3.737584e+01	7.418626e-03	1.271344e-05
1.492813419698330e-03	3.285903e+01	3.734480e+01	7.721159e-03	1.597472e-05
1.492830133030329e-03	3.280066e+01	3.728951e+01	8.254958e-03	2.168395e-05
1.492844350262434e-03	3.269967e+01	3.719371e+01	9.159768e-03	3.151647e-05
1.492858259387101e-03	3.254424e+01	3.704694e+01	1.077345e-02	4.655012e-05
1.492860663296390e-03	3.250645e+01	3.701127e+01	1.116753e-02	5.019990e-05
1.492865471114966e-03	3.240603e+01	3.691597e+01	1.203972e-02	5.994478e-05
1.492875086752118e-03	3.213878e+01	3.666248e+01	1.438572e-02	8.585168e-05
1.492886096917085e-03	3.168767e+01	3.623488e+01	1.836888e-02	1.295342e-04
1.492899721340812e-03	3.082403e+01	3.541705e+01	2.605191e-02	2.130504e-04
1.492914452686377e-03	2.939231e+01	3.406406e+01	3.913128e-02	3.511873e-04
1.492929915991735e-03	2.720495e+01	3.200291e+01	5.963744e-02	5.615968e-04
1.492946726859251e-03	2.413103e+01	2.912147e+01	8.961648e-02	8.557271e-04
1.492966333532756e-03	2.011956e+01	2.538955e+01	1.280059e-01	1.236640e-03
1.492968900002797e-03	1.960563e+01	2.491475e+01	1.327299e-01	1.285101e-03
1.492974032942881e-03	1.869427e+01	2.407876e+01	1.416349e-01	1.370445e-03
1.492984298823049e-03	1.711351e+01	2.264103e+01	1.558307e-01	1.517234e-03
1.492986844429878e-03	1.679413e+01	2.235443e+01	1.584445e-01	1.546492e-03
1.492991935643536e-03	1.631350e+01	2.193403e+01	1.630771e-01	1.589416e-03
1.493002118070852e-03	1.556077e+01	2.128918e+01	1.692818e-01	1.655274e-03
1.493004663677681e-03	1.542222e+01	2.117426e+01	1.702381e-01	1.667013e-03
1.493009754891338e-03	1.522526e+01	2.101931e+01	1.719123e-01	1.682847e-03
1.493019937318654e-03	1.493554e+01	2.078085e+01	1.743221e-01	1.707235e-03
1.493029788709203e-03	1.474911e+01	2.060904e+01	1.759909e-01	1.724818e-03
1.493039983093722e-03	1.461721e+01	2.048151e+01	1.772764e-01	1.737869e-03
1.493053077124313e-03	1.450001e+01	2.036905e+01	1.784270e-01	1.749393e-03
1.493072734024888e-03	1.439325e+01	2.026654e+01	1.795255e-01	1.759937e-03
1.493112047826037e-03	1.428927e+01	2.016696e+01	1.806016e-01	1.770269e-03
1.493190333747315e-03	1.421146e+01	2.009259e+01	1.812706e-01	1.778197e-03
1.493285088643077e-03	1.418367e+01	2.006657e+01	1.814833e-01	1.781263e-03
1.494038123550728e-03	1.417030e+01	2.006003e+01	1.818311e-01	1.785236e-03
1.670460550428233e-03	1.418925e+01	2.162620e+01	2.448616e-01	2.413113e-03
1.870460550428233e-03	1.420697e+01	2.349926e+01	3.201050e-01	3.162526e-03
2.070460550428234e-03	1.422166e+01	2.545159e+01	3.983436e-01	3.941766e-03
2.310460550428235e-03	1.423654e+01	2.786432e+01	4.948127e-01	4.902573e-03
2.570460550428235e-03	1.425024e+01	3.052073e+01	6.008289e-01	5.958461e-03
2.910460550428236e-03	1.426534e+01	3.398738e+01	7.390046e-01	7.334646e-03
3.350460550428237e-03	1.428137e+01	3.832648e+01	9.118677e-01	9.056306e-03
3.790460550428238e-03	1.429432e+01	4.234640e+01	1.072110e+00	1.065227e-02
4.230460550428240e-03	1.430471e+01	4.590891e+01	1.214355e+00	1.206900e-02
4.670460550428241e-03	1.431284e+01	4.890148e+01	1.334189e+00	1.326254e-02
5.110460550428242e-03	1.431889e+01	5.123483e+01	1.428084e+00	1.419775e-02
5.530460550428243e-03	1.432280e+01	5.278466e+01	1.491026e+00	1.482468e-02
5.950460550428244e-03	1.432494e+01	5.363028e+01	1.526196e+00	1.517502e-02
6.350460550428245e-03	1.432534e+01	5.375740e+01	1.532915e+00	1.524201e-02
6.730460550428246e-03	1.432425e+01	5.325673e+01	1.514738e+00	1.506105e-02
7.070460550428247e-03	1.432201e+01	5.229739e+01	1.478248e+00	1.469769e-02
7.210460550428247e-03	1.432075e+01	5.176380e+01	1.457738e+00	1.449345e-02
7.630460550428248e-03	1.431566e+01	4.968968e+01	1.377463e+00	1.369402e-02
8.050460550428240e-03	1.430857e+01	4.693268e+01	1.270128e+00	1.262509e-02
8.450460550428224e-03	1.429972e+01	4.371333e+01	1.144369e+00	1.137267e-02
8.850460550428207e-03	1.428850e+01	3.996424e+01	9.976094e-01	9.911085e-03
9.250460550428191e-03	1.427430e+01	3.574245e+01	8.321316e-01	8.263079e-03
9.630460550428176e-03	1.425701e+01	3.135206e+01	6.599541e-01	6.548346e-03
9.990460550428161e-03	1.423524e+01	2.690550e+01	4.856528e-01	4.812466e-03
1.027046055042815e-02	1.421179e+01	2.328602e+01	3.440516e-01	3.402261e-03
1.055046055042814e-02	1.417546e+01	1.954375e+01	1.984938e-01	1.952695e-03
1.067046055042813e-02	1.415017e+01	1.789727e+01	1.353038e-01	1.323466e-03
1.073046055042813e-02	1.413199e+01	1.705535e+01	1.036703e-01	1.008614e-03
1.075046055042813e-02	1.412386e+01	1.676786e+01	9.315743e-02	9.040720e-04
1.077046055042813e-02	1.411314e+01	1.647107e+01	8.270864e-02	8.002875e-04
1.079046055042813e-02	1.409827e+01	1.615308e+01	7.242919e-02	6.985630e-04
1.081046055042813e-02	1.409385e+01	1.580541e+01	6.255072e-02	5.997671e-04
1.087046055042813e-02	1.405237e+01	1.468256e+01	3.353214e-02	3.110771e-04
1.089046055042812e-02	1.402461e+01	1.429555e+01	2.394510e-02	2.160274e-04
1.091046055042812e-02	1.397222e+01	1.388667e+01	1.449500e-02	1.231636e-04
1.093057773792812e-02	1.388264e+01	1.344523e+01	5.518008e-03	3.280769e-05
1.093167148792812e-02	1.387107e+01	1.341527e+01	5.081470e-03	2.850243e-05
1.093292148792812e-02	1.385526e+01	1.337870e+01	4.597157e-03	2.382065e-05
1.093548917792811e-02	1.381760e+01	1.329931e+01	3.677949e-03	1.463906e-05
1.093603069792805e-02	1.380734e+01	1.328050e+01	3.501128e-03	1.291414e-05
1.093694346270306e-02	1.378836e+01	1.324733e+01	3.220950e-03	1.015571e-05
1.093712644729145e-02	1.378425e+01	1.324041e+01	3.167782e-03	9.629450e-06
1.093720711383012e-02	1.378284e+01	1.323775e+01	3.142614e-03	9.358044e-06
1.093725054739854e-02	1.378437e+01	1.323852e+01	3.120214e-03	8.987623e-06
1.093731579834114e-02	1.379497e+01	1.324742e+01	2.999562e-03	7.639632e-06
1.093740007862198e-02	1.381820e+01	1.326720e+01	2.706110e-03	5.054123e-06
1.093748418130611e-02	1.384282e+01	1.328763e+01	2.446087e-03	2.402958e-06
1.093749827854437e-02	1.384592e+01	1.329006e+01	2.417830e-03	2.060168e-06
1.093752647302089e-02	1.384996e+01	1.329286e+01	2.367027e-03	1.584788e-06
1.093758286197393e-02	1.385535e+01	1.329607e+01	2.293565e-03	8.774737e-07
1.093765196049514e-02	1.385858e+01	1.329714e+01	2.239010e-03	3.035238e-07
1.093771366772889e-02	1.385914e+01	1.329617e+01	2.210415e-03	-1.293463e-08
1.093775928477550e-02	1.385853e+01	1.329460e+01	2.196609e-03	-1.603184e-07
1.093780096713805e-02	1.385744e+01	1.329275e+01	2.187506e-03	-2.518924e-07
1.093783970624299e-02	1.385614e+01	1.329080e+01	2.181193e-03	-3.135305e-07
1.093787878125063e-02	1.385462e+01	1.328867e+01	2.176359e-03	-3.591039e-07
1.093792100445884e-02	1.385280e+01	1.328623e+01	2.172403e-03	-3.951027e-07
1.093796671938913e-02	1.385068e+01	1.328349e+01	2.169188e-03	-4.229036e-07
1.093802317226482e-02	1.384792e+01	1.328000e+01	2.166268e-03	-4.463854e-07
1.093808967751393e-02	1.384453e+01	1.327579e+01	2.163809e-03	-4.642812e-07
1.093816982878354e-02	1.384034e+01	1.327063e+01	2.161699e-03	-4.772053e-07
1.093826353115948e-02	1.383534e+01	1.326453e+01	2.159893e-03	-4.855550e-07
1.093852062087030e-02	1.382143e+01	1.324765e+01	2.156334e-03	-4.938105e-07
1.094661588526171e-02	1.338038e+01	1.271434e+01	2.063963e-03	-5.297767e-07
1.095085817389030e-02	1.314909e+01	1.243503e+01	2.016448e-03	-5.382590e-07
1.098849165660371e-02	1.109518e+01	9.964343e+00	1.604839e-03	-5.411036e-07
1.102849165660371e-02	8.910642e+00	7.352651e+00	1.169895e-03	-5.416904e-07
1.104849165660371e-02	7.818125e+00	6.052720e+00	9.534214e-04	-5.418971e-07
1.106849165660371e-02	6.725620e+00	4.756908e+00	7.376595e-04	-5.420511e-07
1.108849165660370e-02	5.633266e+00	3.465303e+00	5.225831e-04	-5.421583e-07
1.112849165660370e-02	3.449537e+00	8.950324e-01	9.461557e-05	-5.422693e-07
1.114849165660370e-02	2.358419e+00	-3.834774e-01	-1.182538e-04	-5.423079e-07
1.119099165660370e-02	4.194600e-02	-3.086320e+00	-5.682544e-04	-5.439018e-07
1.126318977675055e-02	-3.882587e+00	-7.626256e+00	-1.324576e-03	-5.461054e-07
1.134318977675054e-02	-8.211312e+00	-1.258365e+01	-2.149777e-03	-5.439492e-07
1.142568977675054e-02	-1.264701e+01	-1.761178e+01	-2.986429e-03	-5.406465e-07
1.143068977675054e-02	-1.291465e+01	-1.791342e+01	-3.036657e-03	-5.428220e-07
1.144205874919399e-02	-1.352277e+01	-1.859840e+01	-3.152582e-03	-5.596577e-07
1.146122436340234e-02	-1.454526e+01	-1.974767e+01	-3.352953e-03	-6.491774e-07
1.152122436340233e-02	-1.773297e+01	-2.331504e+01	-3.977567e-03	-9.539756e-07
1.158122436340233e-02	-2.089859e+01	-2.683387e+01	-4.594324e-03	-1.262626e-06
1.164122436340233e-02	-2.403995e+01	-3.030278e+01	-5.202646e-03	-1.570072e-06
1.168122436340233e-02	-2.611982e+01	-3.258729e+01	-5.603395e-03	-1.773849e-06
1.172122436340233e-02	-2.818759e+01	-3.484911e+01	-6.000253e-03	-1.976500e-06
1.174122436340233e-02	-2.921679e+01	-3.597145e+01	-6.197208e-03	-2.077373e-06
1.176122436340232e-02	-3.024279e+01	-3.708806e+01	-6.393182e-03	-2.177929e-06
1.178122436340232e-02	-3.126548e+01	-3.819888e+01	-6.588160e-03	-2.282677e-06
1.180122436340232e-02	-3.228537e+01	-3.930500e+01	-6.783923e-03	-2.411681e-06
1.180276764973696e-02	-3.236341e+01	-3.938964e+01	-6.802264e-03	-2.469173e-06
1.180585422240623e-02	-3.251695e+01	-3.955650e+01	-6.856953e-03	-2.800665e-06
1.180781018675940e-02	-3.261082e+01	-3.965919e+01	-6.921795e-03	-3.315972e-06
1.181011522749184e-02	-3.271447e+01	-3.977399e+01	-7.054920e-03	-4.549182e-06
1.181257014701525e-02	-3.281750e+01	-3.989006e+01	-7.290531e-03	-6.489326e-06
1.181328441961450e-02	-3.284417e+01	-3.992085e+01	-7.380879e-03	-7.356587e-06
1.181423380694434e-02	-3.287813e+01	-3.996049e+01	-7.517132e-03	-8.639345e-06
1.181521012206660e-02	-3.291070e+01	-3.999915e+01	-7.676815e-03	-1.017117e-05
1.181532597999604e-02	-3.291440e+01	-4.000360e+01	-7.697059e-03	-1.036722e-05
1.181534752239488e-02	-3.291455e+01	-4.000390e+01	-7.701479e-03	-1.045730e-05
1.181539336075797e-02	-3.291291e+01	-4.000273e+01	-7.743442e-03	-1.083387e-05
1.181539886788878e-02	-3.291189e+01	-4.000180e+01	-7.754214e-03	-1.095939e-05
1.181540988215041e-02	-3.290758e+01	-3.999776e+01	-7.786884e-03	-1.143357e-05
1.181543191067365e-02	-3.288762e+01	-3.997891e+01	-7.947708e-03	-1.348140e-05
1.181545000503437e-02	-3.284951e+01	-3.994282e+01	-8.286360e-03	-1.726576e-05
1.181546542471296e-02	-3.277987e+01	-3.987679e+01	-8.909883e-03	-2.409125e-05
1.181547972464647e-02	-3.265479e+01	-3.975812e+01	-1.002137e-02	-3.628166e-05
1.181549393082916e-02	-3.242843e+01	-3.954340e+01	-1.202631e-02	-5.827446e-05
1.181550830742774e-02	-3.201713e+01	-3.915326e+01	-1.560108e-02	-9.817065e-05
1.181552452701481e-02	-3.122276e+01	-3.840110e+01	-2.275546e-02	-1.750229e-04
1.181553918173901e-02	-3.003963e+01	-3.728247e+01	-3.355046e-02	-2.892659e-04
1.181555518655219e-02	-2.806244e+01	-3.541738e+01	-5.194568e-02	-4.796952e-04
1.181557112051018e-02	-2.536520e+01	-3.288348e+01	-7.789334e-02	-7.383793e-04
1.181558975729577e-02	-2.172258e+01	-2.948836e+01	-1.143487e-01	-1.084971e-03
1.181560912229220e-02	-1.800829e+01	-2.605932e+01	-1.483131e-01	-1.435028e-03
1.181561182908054e-02	-1.757277e+01	-2.566214e+01	-1.519310e-01	-1.475577e-03
1.181561724265722e-02	-1.691255e+01	-2.507208e+01	-1.584150e-01	-1.535826e-03
1.181562806981059e-02	-1.586915e+01	-2.415502e+01	-1.672814e-01	-1.629480e-03
1.181563619017561e-02	-1.541378e+01	-2.377831e+01	-1.709991e-01	-1.668017e-03
1.181564701732898e-02	-1.503536e+01	-2.347322e+01	-1.740713e-01	-1.699378e-03
1.181565804092461e-02	-1.479361e+01	-2.325973e+01	-1.760922e-01	-1.721236e-03
1.181568494385593e-02	-1.449048e+01	-2.296713e+01	-1.790064e-01	-1.751046e-03
1.181572866729469e-02	-1.431297e+01	-2.279689e+01	-1.808323e-01	-1.768680e-03
1.181588232929476e-02	-1.419042e+01	-2.268034e+01	-1.819684e-01	-1.781494e-03
1.184684226454022e-02	-1.417497e+01	-2.297157e+01	-1.974901e-01	-1.936954e-03
1.188684226454022e-02	-1.418125e+01	-2.337485e+01	-2.173346e-01	-2.134750e-03
1.194684226454022e-02	-1.418969e+01	-2.398252e+01	-2.470018e-01	-2.430455e-03
1.200684226454022e-02	-1.419715e+01	-2.459356e+01	-2.765403e-01	-2.724872e-03
1.208684226454021e-02	-1.420595e+01	-2.541320e+01	-3.157113e-01	-3.115278e-03
1.218684226454021e-02	-1.421556e+01	-2.644452e+01	-3.643062e-01	-3.599586e-03
1.230684226454021e-02	-1.422553e+01	-2.768954e+01	-4.220343e-01	-4.174886e-03
1.244684226454020e-02	-1.423560e+01	-2.914766e+01	-4.885001e-01	-4.837223e-03
1.260684226454019e-02	-1.424558e+01	-3.081421e+01	-5.631728e-01	-5.581292e-03
1.276684226454019e-02	-1.425433e+01	-3.247241e+01	-6.363178e-01	-6.310096e-03
1.292684226454018e-02	-1.426211e+01	-3.411376e+01	-7.077674e-01	-7.021972e-03
1.308684226454017e-02	-1.426911e+01	-3.573008e+01	-7.773480e-01	-7.715195e-03
1.324684226454017e-02	-1.427544e+01	-3.731363e+01	-8.448825e-01	-8.388008e-03
1.342684226454016e-02	-1.428191e+01	-3.904683e+01	-9.181911e-01	-9.118321e-03
1.360684226454015e-02	-1.428774e+01	-4.071947e+01	-9.884319e-01	-9.818055e-03
1.378684226454015e-02	-1.429304e+01	-4.232243e+01	-1.055358e+00	-1.048475e-02
1.398684226454014e-02	-1.429834e+01	-4.401145e+01	-1.125539e+00	-1.118385e-02
1.418684226454013e-02	-1.430307e+01	-4.559322e+01	-1.191014e+00	-1.183607e-02
1.440684226454012e-02	-1.430767e+01	-4.719763e+01	-1.257243e+00	-1.249580e-02
1.462684226454011e-02	-1.431172e+01	-4.864868e+01	-1.317047e+00	-1.309151e-02
1.486684226454010e-02	-1.431548e+01	-5.004448e+01	-1.374561e+00	-1.366441e-02
1.500684226454010e-02	-1.431737e+01	-5.076389e+01	-1.404235e+00	-1.396000e-02
1.528684226454008e-02	-1.432055e+01	-5.198348e+01	-1.454692e+00	-1.446262e-02
1.558684226454007e-02	-1.432306e+01	-5.295280e+01	-1.495155e+00	-1.486569e-02
1.590684226454006e-02	-1.432471e+01	-5.358751e+01	-1.522310e+00	-1.513623e-02
1.626684226454005e-02	-1.432534e+01	-5.379585e+01	-1.532663e+00	-1.523943e-02
1.662684226454003e-02	-1.432466e+01	-5.346139e+01	-1.521392e+00	-1.512726e-02
1.694684226454002e-02	-1.432295e+01	-5.270842e+01	-1.493249e+00	-1.484704e-02
1.716684226454001e-02	-1.432113e+01	-5.194460e+01	-1.464117e+00	-1.455694e-02
1.728684226454000e-02	-1.431994e+01	-5.144463e+01	-1.444915e+00	-1.436573e-02
1.732684226454000e-02	-1.431951e+01	-5.126503e+01	-1.438000e+00	-1.429687e-02
1.742684226454000e-02	-1.431836e+01	-5.078797e+01	-1.419599e+00	-1.411362e-02
1.762684226453999e-02	-1.431571e+01	-4.971508e+01	-1.378078e+00	-1.370013e-02
1.792684226453998e-02	-1.431086e+01	-4.781643e+01	-1.304305e+00	-1.296545e-02
1.830684226453996e-02	-1.430315e+01	-4.493591e+01	-1.191974e+00	-1.184675e-02
