time	V(a1)	V(g)	V(l) Step Information: A=10µ  (Step: 1/3)
0.000000000000000e+00	9.560285e-23	-2.119503e-23	-1.912059e-24
6.399999641359955e-09	1.040662e-04	4.552097e-06	3.392009e-06
1.279999928271991e-08	2.242477e-04	1.044673e-05	6.304969e-06
2.559999856543982e-08	4.976661e-04	2.503204e-05	1.097678e-05
4.577895910516066e-08	9.852381e-04	5.214259e-05	1.604939e-05
6.741278404924486e-08	1.562142e-03	8.270988e-05	1.942636e-05
9.281851295175434e-08	2.287494e-03	1.166282e-04	2.183480e-05
1.252582351460885e-07	3.253006e-03	1.540529e-04	2.361020e-05
1.737895322874516e-07	4.733696e-03	1.968803e-04	2.503245e-05
2.450710608538922e-07	6.936820e-03	2.369139e-04	2.611631e-05
4.147348998375172e-07	1.221951e-02	2.737730e-04	2.750648e-05
1.465043464725256e-06	4.502730e-02	2.897839e-04	3.316032e-05
2.249407225164756e-06	6.953818e-02	2.942897e-04	3.727916e-05
3.818134746043758e-06	1.185773e-01	3.031835e-04	4.550869e-05
6.955589787801761e-06	2.167246e-01	3.205071e-04	6.193359e-05
1.323049987131777e-05	4.132906e-01	3.542754e-04	9.473961e-05
2.578032003834978e-05	8.073773e-01	4.215235e-04	1.604571e-04
4.578032003834978e-05	1.437518e+00	5.289785e-04	2.655674e-04
6.578032003834978e-05	2.070213e+00	6.368121e-04	3.711400e-04
8.578032003834978e-05	2.705675e+00	7.450420e-04	4.771673e-04
1.057803200383498e-04	3.343847e+00	8.536571e-04	5.836397e-04
1.257803200383498e-04	3.984668e+00	9.626638e-04	6.905488e-04
1.457803200383498e-04	4.628084e+00	1.072046e-03	7.978848e-04
1.657803200383498e-04	5.274035e+00	1.181808e-03	9.056389e-04
1.857803200383498e-04	5.922466e+00	1.291931e-03	1.013801e-03
2.057803200383498e-04	6.573318e+00	1.402418e-03	1.122363e-03
2.257803200383498e-04	7.226537e+00	1.513252e-03	1.231315e-03
2.457803200383498e-04	7.882066e+00	1.624432e-03	1.340648e-03
2.657803200383498e-04	8.539847e+00	1.735942e-03	1.450351e-03
2.857803200383498e-04	9.199827e+00	1.847781e-03	1.560418e-03
3.057803200383498e-04	9.861950e+00	1.959934e-03	1.670837e-03
3.257803200383498e-04	1.052616e+01	2.072399e-03	1.781601e-03
3.457803200383498e-04	1.119240e+01	2.185161e-03	1.892699e-03
3.657803200383498e-04	1.186062e+01	2.298217e-03	2.004123e-03
4.057803200383498e-04	1.320278e+01	2.525165e-03	2.227913e-03
4.457803200383498e-04	1.455220e+01	2.753176e-03	2.452899e-03
4.682803200383498e-04	1.531389e+01	2.881891e-03	2.579956e-03
4.732803200383498e-04	1.548356e+01	2.910914e-03	2.608273e-03
4.822449022916942e-04	1.578797e+01	2.975801e-03	2.660264e-03
4.913130899018824e-04	1.609622e+01	3.050782e-03	2.713725e-03
5.228226433851197e-04	1.716973e+01	3.325379e-03	2.901157e-03
5.828226433851199e-04	1.922375e+01	3.863407e-03	3.260973e-03
6.428226433851201e-04	2.128979e+01	4.409301e-03	3.623320e-03
7.028226433851202e-04	2.336657e+01	4.959889e-03	3.987733e-03
7.828226433851204e-04	2.614993e+01	5.700149e-03	4.476335e-03
8.828226433851207e-04	2.964771e+01	6.633210e-03	5.090595e-03
9.828226433851210e-04	3.316042e+01	7.572583e-03	5.707700e-03
1.062822643385121e-03	3.597733e+01	8.327520e-03	6.202713e-03
1.082822643385121e-03	3.668203e+01	8.528867e-03	6.327696e-03
1.085322643385121e-03	3.677002e+01	8.577771e-03	6.345544e-03
1.090322643385121e-03	3.694550e+01	8.838583e-03	6.396375e-03
1.093311412246540e-03	3.704964e+01	9.277544e-03	6.453075e-03
1.096511502930151e-03	3.715960e+01	1.025626e-02	6.560326e-03
1.100019367454297e-03	3.727746e+01	1.229457e-02	6.766444e-03
1.103696360620736e-03	3.739816e+01	1.605381e-02	7.130640e-03
1.104683677637150e-03	3.742932e+01	1.742097e-02	7.261125e-03
1.104713737583202e-03	3.742953e+01	1.747910e-02	7.271269e-03
1.104758029851008e-03	3.742700e+01	1.787264e-02	7.386440e-03
1.104778812015479e-03	3.742139e+01	1.844525e-02	7.576264e-03
1.104797526862673e-03	3.740776e+01	1.974227e-02	8.031192e-03
1.104811732475550e-03	3.738543e+01	2.182819e-02	8.771854e-03
1.104825171021218e-03	3.734474e+01	2.556295e-02	1.008663e-02
1.104838722699665e-03	3.727087e+01	3.243893e-02	1.245948e-02
1.104852529540986e-03	3.713694e+01	4.498473e-02	1.668776e-02
1.104867821355230e-03	3.688270e+01	7.019042e-02	2.495046e-02
1.104881839088793e-03	3.649226e+01	1.103123e-01	3.774046e-02
1.104896790536511e-03	3.582907e+01	1.819568e-01	5.978722e-02
1.104911368331562e-03	3.486257e+01	2.934203e-01	9.251582e-02
1.104927199449747e-03	3.343038e+01	4.751140e-01	1.423149e-01
1.104944007367451e-03	3.162398e+01	7.376837e-01	2.073876e-01
1.104959780448378e-03	2.987090e+01	1.010689e+00	2.688984e-01
1.104967274529223e-03	2.912129e+01	1.095405e+00	2.951571e-01
1.104978682787886e-03	2.818062e+01	1.137910e+00	3.278635e-01
1.104986266549273e-03	2.769919e+01	1.154606e+00	3.438136e-01
1.104995100811731e-03	2.731445e+01	1.171354e+00	3.576232e-01
1.105012769336646e-03	2.683096e+01	1.191209e+00	3.753293e-01
1.105040062478240e-03	2.641025e+01	1.207150e+00	3.889969e-01
1.105068319192259e-03	2.619547e+01	1.214432e+00	3.956620e-01
1.105108424745934e-03	2.606461e+01	1.219507e+00	3.999092e-01
1.105164983770178e-03	2.599169e+01	1.221828e+00	4.021605e-01
1.105248449318064e-03	2.595671e+01	1.223249e+00	4.032254e-01
1.105377104761871e-03	2.594309e+01	1.223588e+00	4.037070e-01
1.108282397595304e-03	2.597590e+01	1.225658e+00	4.055332e-01
1.354073793031684e-03	2.937744e+01	1.379198e+00	5.429917e-01
1.614073793031684e-03	3.284249e+01	1.532603e+00	6.828057e-01
1.894073793031685e-03	3.639771e+01	1.688443e+00	8.260354e-01
2.194073793031686e-03	3.997535e+01	1.844234e+00	9.699963e-01
2.554073793031687e-03	4.391056e+01	2.014553e+00	1.128248e+00
2.954073793031688e-03	4.776912e+01	2.181018e+00	1.283458e+00
3.354073793031689e-03	5.102930e+01	2.321544e+00	1.414801e+00
3.774073793031690e-03	5.375324e+01	2.439054e+00	1.524929e+00
4.194073793031691e-03	5.571499e+01	2.524423e+00	1.604828e+00
4.614073793031692e-03	5.688083e+01	2.575874e+00	1.653196e+00
5.034073793031693e-03	5.723074e+01	2.593094e+00	1.669239e+00
5.454073793031694e-03	5.675874e+01	2.575374e+00	1.652725e+00
5.874073793031695e-03	5.547307e+01	2.523499e+00	1.603960e+00
6.034073793031696e-03	5.477347e+01	2.494812e+00	1.577065e+00
6.254073793031696e-03	5.362705e+01	2.447427e+00	1.532769e+00
6.614073793031697e-03	5.130406e+01	2.351080e+00	1.442549e+00
7.034073793031699e-03	4.792822e+01	2.210376e+00	1.310871e+00
7.434073793031700e-03	4.409761e+01	2.049765e+00	1.161034e+00
7.834073793031700e-03	3.972720e+01	1.865572e+00	9.897794e-01
8.234073793031683e-03	3.488485e+01	1.660176e+00	7.998394e-01
8.614073793031668e-03	2.991516e+01	1.447245e+00	6.048707e-01
8.994073793031652e-03	2.465316e+01	1.218137e+00	3.986908e-01
9.314073793031639e-03	2.003979e+01	1.008126e+00	2.188506e-01
9.454073793031634e-03	1.797082e+01	9.029748e-01	1.392340e-01
9.514073793031631e-03	1.706833e+01	8.485186e-01	1.052345e-01
9.554073793031630e-03	1.645009e+01	7.966108e-01	8.292748e-02
9.574073793031629e-03	1.612360e+01	7.452778e-01	7.234383e-02
9.594073793031628e-03	1.577802e+01	6.645936e-01	6.244416e-02
9.614073793031627e-03	1.541928e+01	5.552432e-01	5.316754e-02
9.634073793031626e-03	1.505626e+01	4.599721e-01	4.363747e-02
9.654073793031626e-03	1.469044e+01	3.505581e-01	3.444263e-02
9.674073793031625e-03	1.432053e+01	2.567921e-01	2.507528e-02
9.694073793031624e-03	1.394111e+01	1.505994e-01	1.614404e-02
9.714073793031623e-03	1.355128e+01	6.650499e-02	7.682665e-03
9.714112855531623e-03	1.355059e+01	6.507034e-02	7.640908e-03
9.714190980531624e-03	1.354897e+01	6.298062e-02	7.617813e-03
9.714347230531623e-03	1.354521e+01	6.130011e-02	7.587255e-03
9.716693025047060e-03	1.349544e+01	5.160885e-02	6.697826e-03
9.718986672923627e-03	1.344525e+01	4.261740e-02	5.880130e-03
9.723619415531713e-03	1.334108e+01	2.627988e-02	4.382453e-03
9.724528352630732e-03	1.331937e+01	2.346704e-02	4.124142e-03
9.725497885536350e-03	1.329566e+01	2.062386e-02	3.863747e-03
9.727494824999277e-03	1.324585e+01	1.538328e-02	3.383637e-03
9.728539505445045e-03	1.321879e+01	1.300493e-02	3.164158e-03
9.728580597115165e-03	1.321838e+01	1.289099e-02	3.148055e-03
9.728640324239670e-03	1.322035e+01	1.240761e-02	3.039571e-03
9.728704117141882e-03	1.322556e+01	1.092891e-02	2.747516e-03
9.728772985945855e-03	1.323215e+01	8.398506e-03	2.430489e-03
9.728790203146848e-03	1.323321e+01	7.745585e-03	2.385794e-03
9.728824637548834e-03	1.323401e+01	6.529407e-03	2.313553e-03
9.728878242007920e-03	1.323415e+01	5.018209e-03	2.250668e-03
9.728936044939926e-03	1.323338e+01	3.886318e-03	2.218558e-03
9.728979201612907e-03	1.323244e+01	3.313613e-03	2.205665e-03
9.729017328419538e-03	1.323144e+01	2.948021e-03	2.198157e-03
9.729058332831582e-03	1.323030e+01	2.661990e-03	2.192592e-03
9.729099116982276e-03	1.322910e+01	2.458583e-03	2.188765e-03
9.729135929482189e-03	1.322800e+01	2.325747e-03	2.186306e-03
9.729176409942761e-03	1.322676e+01	2.219665e-03	2.184351e-03
9.729214217352178e-03	1.322558e+01	2.148499e-03	2.183032e-03
9.729261338142028e-03	1.322411e+01	2.086218e-03	2.181853e-03
9.729368109639088e-03	1.322073e+01	2.010972e-03	2.180219e-03
9.729595054183630e-03	1.321351e+01	1.967286e-03	2.178385e-03
9.741769804943031e-03	1.282453e+01	1.865835e-03	2.110781e-03
9.747018296574862e-03	1.265641e+01	1.826694e-03	2.081791e-03
9.757515279838522e-03	1.231955e+01	1.760642e-03	2.024834e-03
9.801004303388473e-03	1.091520e+01	1.521838e-03	1.790612e-03
9.881004303388469e-03	8.297050e+00	1.076974e-03	1.353885e-03
9.981004303388465e-03	4.964428e+00	5.115231e-04	7.980337e-04
1.008100430338846e-02	1.571243e+00	-6.328249e-05	2.321614e-04
1.012100430338846e-02	1.984725e-01	-2.956686e-04	3.243558e-06
1.016100430338846e-02	-1.182536e+00	-5.294089e-04	-2.270443e-04
1.020350430338846e-02	-2.657990e+00	-7.797888e-04	-4.732099e-04
1.020850430338846e-02	-2.832232e+00	-8.113538e-04	-5.024503e-04
1.023029253479243e-02	-3.592848e+00	-9.418651e-04	-6.294107e-04
1.029029253479243e-02	-5.697757e+00	-1.297668e-03	-9.803368e-04
1.039029253479243e-02	-9.237661e+00	-1.894579e-03	-1.570428e-03
1.049029253479242e-02	-1.281230e+01	-2.496445e-03	-2.166221e-03
1.059029253479242e-02	-1.641566e+01	-3.102083e-03	-2.766710e-03
1.061904253479242e-02	-1.745591e+01	-3.278210e-03	-2.940217e-03
1.062654253479242e-02	-1.772762e+01	-3.338760e-03	-2.986859e-03
1.064679474943324e-02	-1.846182e+01	-3.524045e-03	-3.114829e-03
1.072679474943323e-02	-2.136909e+01	-4.293149e-03	-3.624794e-03
1.078679474943323e-02	-2.355587e+01	-4.877857e-03	-4.008953e-03
1.082679474943323e-02	-2.501610e+01	-5.269379e-03	-4.265573e-03
1.086679474943323e-02	-2.647781e+01	-5.661885e-03	-4.522507e-03
1.088679474943323e-02	-2.720911e+01	-5.858480e-03	-4.651072e-03
1.090679474943323e-02	-2.794065e+01	-6.055167e-03	-4.779682e-03
1.092679474943323e-02	-2.867238e+01	-6.252087e-03	-4.908341e-03
1.096679474943322e-02	-3.013624e+01	-6.646236e-03	-5.165750e-03
1.102679474943322e-02	-3.233238e+01	-7.238158e-03	-5.551981e-03
1.110679474943322e-02	-3.525943e+01	-8.028179e-03	-6.066852e-03
1.114679474943322e-02	-3.672169e+01	-8.423260e-03	-6.324104e-03
1.116679474943322e-02	-3.745234e+01	-8.620799e-03	-6.452659e-03
1.118239831888253e-02	-3.802206e+01	-8.833131e-03	-6.558247e-03
1.118343988938521e-02	-3.806002e+01	-8.873366e-03	-6.567822e-03
1.118552303039056e-02	-3.813568e+01	-9.004266e-03	-6.591586e-03
1.118838883580542e-02	-3.823911e+01	-9.388340e-03	-6.642963e-03
1.119176763387451e-02	-3.835954e+01	-1.039801e-02	-6.754952e-03
1.119491105602528e-02	-3.846908e+01	-1.224338e-02	-6.942135e-03
1.119838288223216e-02	-3.858728e+01	-1.582092e-02	-7.289611e-03
1.119961215761492e-02	-3.862748e+01	-1.758340e-02	-7.457816e-03
1.119964517894095e-02	-3.862850e+01	-1.763486e-02	-7.462849e-03
1.119967557165854e-02	-3.862871e+01	-1.770231e-02	-7.475831e-03
1.119971524982497e-02	-3.862754e+01	-1.806056e-02	-7.583024e-03
1.119971770593001e-02	-3.862732e+01	-1.810198e-02	-7.596121e-03
1.119972261814009e-02	-3.862650e+01	-1.819462e-02	-7.626168e-03
1.119973244256026e-02	-3.862328e+01	-1.845789e-02	-7.716049e-03
1.119975209140060e-02	-3.860915e+01	-1.962112e-02	-8.125746e-03
1.119976998320085e-02	-3.858089e+01	-2.219578e-02	-9.034536e-03
1.119978524606548e-02	-3.853145e+01	-2.682952e-02	-1.065099e-02
1.119979931385005e-02	-3.844622e+01	-3.491649e-02	-1.341883e-02
1.119981314388740e-02	-3.829568e+01	-4.917690e-02	-1.819316e-02
1.119982844318256e-02	-3.801146e+01	-7.760116e-02	-2.745496e-02
1.119984243207334e-02	-3.757987e+01	-1.223660e-01	-4.163038e-02
1.119985744642638e-02	-3.685061e+01	-2.020864e-01	-6.594931e-02
1.119987212938867e-02	-3.580210e+01	-3.251356e-01	-1.016379e-01
1.119988819479213e-02	-3.427516e+01	-5.238773e-01	-1.551283e-01
1.119990542483827e-02	-3.238435e+01	-8.057444e-01	-2.231175e-01
1.119991800264173e-02	-3.099001e+01	-1.022470e+00	-2.717446e-01
1.119992497665512e-02	-3.029601e+01	-1.097299e+00	-2.959589e-01
1.119993521065890e-02	-2.944108e+01	-1.134758e+00	-3.256176e-01
1.119994190095354e-02	-2.900078e+01	-1.150832e+00	-3.403920e-01
1.119995061140301e-02	-2.859780e+01	-1.168226e+00	-3.550293e-01
1.119996803230196e-02	-2.808628e+01	-1.189523e+00	-3.738143e-01
1.119999549742793e-02	-2.763261e+01	-1.206494e+00	-3.884957e-01
1.120002255421892e-02	-2.741117e+01	-1.214058e+00	-3.953144e-01
1.120006154080169e-02	-2.727346e+01	-1.219345e+00	-3.998262e-01
1.120011602801458e-02	-2.719590e+01	-1.221912e+00	-4.022245e-01
1.120019692241428e-02	-2.715786e+01	-1.223371e+00	-4.033878e-01
1.120117851560907e-02	-2.714602e+01	-1.224769e+00	-4.046284e-01
1.134705749537321e-02	-2.917106e+01	-1.323303e+00	-4.927199e-01
1.150705749537320e-02	-3.133985e+01	-1.426723e+00	-5.862268e-01
1.166705749537320e-02	-3.344970e+01	-1.525643e+00	-6.764364e-01
1.184705749537319e-02	-3.574740e+01	-1.631991e+00	-7.739149e-01
1.202705749537318e-02	-3.795867e+01	-1.732889e+00	-8.670648e-01
1.220705749537317e-02	-4.007720e+01	-1.828878e+00	-9.557728e-01
1.238705749537317e-02	-4.209680e+01	-1.919443e+00	-1.039921e+00
1.258705749537316e-02	-4.421749e+01	-2.014054e+00	-1.127906e+00
1.278705749537315e-02	-4.620082e+01	-2.102062e+00	-1.209904e+00
1.300705749537314e-02	-4.821497e+01	-2.191187e+00	-1.292956e+00
1.322705749537313e-02	-5.004476e+01	-2.271673e+00	-1.368278e+00
1.346705749537312e-02	-5.182080e+01	-2.349781e+00	-1.441340e+00
1.372705749537311e-02	-5.347475e+01	-2.422636e+00	-1.509436e+00
1.400705749537310e-02	-5.492992e+01	-2.486786e+00	-1.569543e+00
1.430705749537309e-02	-5.610186e+01	-2.538709e+00	-1.618340e+00
1.462705749537307e-02	-5.689947e+01	-2.574852e+00	-1.652240e+00
1.496705749537306e-02	-5.722681e+01	-2.591209e+00	-1.667468e+00
1.514705749537305e-02	-5.718179e+01	-2.590400e+00	-1.666825e+00
1.548705749537304e-02	-5.668507e+01	-2.571748e+00	-1.649210e+00
1.576705749537303e-02	-5.587543e+01	-2.539290e+00	-1.618766e+00
1.596705749537302e-02	-5.507917e+01	-2.506853e+00	-1.588352e+00
1.608705749537302e-02	-5.451566e+01	-2.483749e+00	-1.566694e+00
1.610705749537301e-02	-5.441557e+01	-2.479515e+00	-1.562840e+00
1.618705749537301e-02	-5.399765e+01	-2.462317e+00	-1.546723e+00
1.634705749537300e-02	-5.307861e+01	-2.424379e+00	-1.511179e+00
1.660705749537299e-02	-5.135384e+01	-2.352994e+00	-1.444226e+00
1.692705749537298e-02	-4.885318e+01	-2.248833e+00	-1.346805e+00
1.730705749537297e-02	-4.537516e+01	-2.103155e+00	-1.210912e+00
1.770705749537295e-02	-4.116927e+01	-1.926244e+00	-1.046225e+00
1.810705749537293e-02	-3.646907e+01	-1.727355e+00	-8.619334e-01
1.850705749537292e-02	-3.134708e+01	-1.508791e+00	-6.609977e-01
1.888705749537290e-02	-2.616074e+01	-1.284395e+00	-4.576769e-01
1.924705749537289e-02	-2.101843e+01	-1.054071e+00	-2.568265e-01
1.942705749537288e-02	-1.837313e+01	-9.248748e-01	-1.545748e-01
1.950705749537288e-02	-1.717476e+01	-8.553067e-01	-1.091755e-01
1.952705749537288e-02	-1.687027e+01	-8.337260e-01	-9.792985e-02
1.954705749537287e-02	-1.656081e+01	-8.068795e-01	-8.678433e-02
1.956705749537287e-02	-1.624009e+01	-7.677206e-01	-7.595060e-02
1.958705749537287e-02	-1.590097e+01	-6.950859e-01	-6.583983e-02
1.962705749537287e-02	-1.518378e+01	-4.922808e-01	-4.697011e-02
1.966705749537287e-02	-1.445077e+01	-2.883343e-01	-2.832506e-02
1.968705749537287e-02	-1.407596e+01	-1.885808e-01	-1.925897e-02
1.970705749537287e-02	-1.367953e+01	-9.276343e-02	-1.043824e-02
1.972705749537287e-02	-1.325115e+01	-1.857870e-02	-3.699452e-03
1.972706813099787e-02	-1.325169e+01	-1.844469e-02	-3.629462e-03
1.972708940224786e-02	-1.325352e+01	-1.813386e-02	-3.529204e-03
1.972712618829562e-02	-1.325442e+01	-1.754289e-02	-3.465656e-03
1.972716496957961e-02	-1.325394e+01	-1.701658e-02	-3.448905e-03
1.972723019983968e-02	-1.325234e+01	-1.640468e-02	-3.434305e-03
1.972734717496733e-02	-1.324932e+01	-1.578321e-02	-3.409942e-03
1.972763844424322e-02	-1.324181e+01	-1.498009e-02	-3.346371e-03
1.972846404133398e-02	-1.322033e+01	-1.311277e-02	-3.174945e-03
1.972850009158750e-02	-1.321950e+01	-1.303052e-02	-3.166324e-03
1.972854869284943e-02	-1.321933e+01	-1.287229e-02	-3.140526e-03
1.972860669418587e-02	-1.322192e+01	-1.226637e-02	-3.001032e-03
1.972867393336566e-02	-1.322783e+01	-1.046537e-02	-2.671938e-03
1.972874265976635e-02	-1.323356e+01	-7.860993e-03	-2.386367e-03
1.972877865222390e-02	-1.323504e+01	-6.563468e-03	-2.312623e-03
1.972882104670739e-02	-1.323524e+01	-5.317028e-03	-2.260967e-03
1.972886897064346e-02	-1.323471e+01	-4.263350e-03	-2.228504e-03
1.972891922643289e-02	-1.323371e+01	-3.490931e-03	-2.209667e-03
1.972896154357677e-02	-1.323265e+01	-3.040107e-03	-2.200146e-03
1.972900237921713e-02	-1.323153e+01	-2.729065e-03	-2.194020e-03
1.972904311694175e-02	-1.323035e+01	-2.506766e-03	-2.189812e-03
1.972908119795808e-02	-1.322922e+01	-2.356956e-03	-2.187032e-03
1.972911723686119e-02	-1.322812e+01	-2.252924e-03	-2.185117e-03
1.972915592819902e-02	-1.322692e+01	-2.171122e-03	-2.183607e-03
1.972919916508474e-02	-1.322557e+01	-2.106274e-03	-2.182393e-03
1.972930150739197e-02	-1.322234e+01	-2.021439e-03	-2.180637e-03
1.972951688496182e-02	-1.321549e+01	-1.969996e-03	-2.178759e-03
1.974044983093883e-02	-1.286626e+01	-1.875785e-03	-2.118000e-03
1.974432972174493e-02	-1.274205e+01	-1.846379e-03	-2.096536e-03
1.975208950335714e-02	-1.249321e+01	-1.791831e-03	-2.053945e-03
1.976760906658155e-02	-1.199409e+01	-1.705203e-03	-1.970591e-03
1.984678903397710e-02	-9.421749e+00	-1.267872e-03	-1.541489e-03
1.994678903397709e-02	-6.111392e+00	-7.061420e-04	-9.893322e-04
1.998678903397709e-02	-4.769494e+00	-4.785671e-04	-7.654942e-04
2.000000000000000e-02	-4.324486e+00	-4.028823e-04	-6.912054e-04 Step Information: A=500m  (Step: 2/3)
0.000000000000000e+00	3.670509e-23	-8.137484e-24	-7.341034e-25
6.399999641359955e-09	1.724675e-04	2.634417e-06	1.966234e-06
1.279999928271991e-08	3.501857e-04	5.982569e-06	3.616256e-06
2.559999856543982e-08	7.167695e-04	1.409343e-05	6.179248e-06
5.119999713087964e-08	1.473022e-03	3.272863e-05	9.356718e-06
7.567377756953674e-08	2.214155e-03	5.065768e-05	1.093117e-05
1.092359145972656e-07	3.247168e-03	7.215516e-05	1.208908e-05
1.445550348077061e-07	4.342734e-03	9.014309e-05	1.274738e-05
2.077619122465934e-07	6.311253e-03	1.123581e-04	1.346650e-05
5.117359876097740e-07	1.580040e-02	1.417988e-04	1.541897e-05
1.702127682867824e-06	5.299180e-02	1.502298e-04	2.167986e-05
2.775956984618625e-06	8.655310e-02	1.562738e-04	2.730854e-05
4.923615588120228e-06	1.537076e-01	1.683217e-04	3.856654e-05
9.218932795123433e-06	2.881438e-01	1.922157e-04	6.107910e-05
1.780956720912984e-05	5.575207e-01	2.392833e-04	1.061009e-04
3.499083603714266e-05	1.097824e+00	3.328048e-04	1.963330e-04
5.499083603714266e-05	1.729106e+00	4.419542e-04	3.017957e-04
7.499083603714266e-05	2.363085e+00	5.514988e-04	4.077180e-04
9.499083603714266e-05	2.999804e+00	6.614369e-04	5.140908e-04
1.149908360371427e-04	3.639204e+00	7.717597e-04	6.209044e-04
1.349908360371427e-04	4.281229e+00	8.824621e-04	7.281498e-04
1.549908360371427e-04	4.925820e+00	9.935342e-04	8.358172e-04
1.749908360371426e-04	5.572922e+00	1.104970e-03	9.438976e-04
