time	V(D,G)	V(a1)	V(l)	Ix(U1:G)
0.000000000000000e+00	3.155487e-22	1.845498e-22	-3.690997e-24	-3.722345e-26
5.919903919932141e-07	1.311759e-05	1.749235e-05	4.407558e-08	4.188782e-10
9.809770698562353e-07	3.694653e-05	4.784998e-05	8.268633e-08	7.543864e-10
1.400656170323223e-06	7.678177e-05	9.784089e-05	1.272826e-07	1.118430e-09
1.852932345753347e-06	1.362436e-04	1.718837e-04	1.788017e-07	1.510559e-09
2.281771198627783e-06	2.098009e-04	2.630420e-04	2.309545e-07	1.882246e-09
2.834646928512415e-06	3.295869e-04	4.110025e-04	3.029328e-07	2.361247e-09
3.491961018833692e-06	5.073305e-04	6.300003e-04	3.954459e-07	2.930464e-09
4.347234833014999e-06	7.956543e-04	9.845207e-04	5.270836e-07	3.670676e-09
5.382581604826567e-06	1.230695e-03	1.518550e-03	7.034412e-07	4.566081e-09
6.705040324208965e-06	1.923223e-03	2.367484e-03	9.557154e-07	5.708752e-09
8.325862655748009e-06	2.980539e-03	3.662092e-03	1.306089e-06	7.107638e-09
1.037829210700464e-05	4.647835e-03	5.701553e-03	1.814563e-06	8.876524e-09
1.291477717772048e-05	7.212590e-03	8.836056e-03	2.542465e-06	1.105871e-08
1.611211976932629e-05	1.123499e-02	1.374808e-02	3.615672e-06	1.380322e-08
2.008626900334448e-05	1.745180e-02	2.133403e-02	5.189535e-06	1.720437e-08
2.508739599519659e-05	2.717344e-02	3.318756e-02	7.543834e-06	2.146658e-08
3.133302439927735e-05	4.224769e-02	5.155249e-02	1.106063e-05	2.675418e-08
3.919773116408030e-05	6.579299e-02	8.021180e-02	1.638308e-05	3.333377e-08
4.906795599947081e-05	1.024005e-01	1.247241e-01	2.443848e-05	4.141011e-08
6.153503782079898e-05	1.595967e-01	1.941848e-01	3.673353e-05	5.124011e-08
7.728134213233254e-05	2.487781e-01	3.023277e-01	5.552801e-05	6.305429e-08
9.728134213233253e-05	3.864319e-01	4.689721e-01	8.445766e-05	7.730362e-08
1.172813421323325e-04	5.500796e-01	6.667320e-01	1.188091e-04	9.087445e-08
1.372813421323325e-04	7.400089e-01	8.958287e-01	1.583125e-04	1.038152e-07
1.572813421323325e-04	9.550052e-01	1.154683e+00	2.027084e-04	1.161663e-07
1.772813421323325e-04	1.193913e+00	1.441794e+00	2.517499e-04	1.279562e-07
1.972813421323325e-04	1.455634e+00	1.755738e+00	3.052026e-04	1.392107e-07
2.172813421323325e-04	1.739122e+00	2.095161e+00	3.628439e-04	1.499551e-07
2.372813421323325e-04	2.043382e+00	2.458780e+00	4.244624e-04	1.602133e-07
2.572813421323325e-04	2.367469e+00	2.845373e+00	4.898572e-04	1.700085e-07
2.772813421323325e-04	2.710480e+00	3.253779e+00	5.588376e-04	1.793623e-07
2.972813421323325e-04	3.071557e+00	3.682898e+00	6.312223e-04	1.882959e-07
3.172813421323325e-04	3.449885e+00	4.131681e+00	7.068389e-04	1.968289e-07
3.372813421323325e-04	3.844685e+00	4.599133e+00	7.855239e-04	2.049805e-07
3.572813421323325e-04	4.255215e+00	5.084309e+00	8.671215e-04	2.127684e-07
3.772813421323325e-04	4.680771e+00	5.586309e+00	9.514838e-04	2.202098e-07
3.972813421323325e-04	5.120680e+00	6.104279e+00	1.038470e-03	2.273208e-07
4.172813421323325e-04	5.574299e+00	6.637404e+00	1.127947e-03	2.341170e-07
4.372813421323325e-04	6.041019e+00	7.184914e+00	1.219788e-03	2.406129e-07
4.572813421323325e-04	6.520255e+00	7.746070e+00	1.313870e-03	2.468223e-07
4.772813421323325e-04	7.011453e+00	8.320176e+00	1.410080e-03	2.527585e-07
4.972813421323325e-04	7.514082e+00	8.906565e+00	1.508307e-03	2.584340e-07
5.172813421323325e-04	8.027636e+00	9.504603e+00	1.608448e-03	2.638606e-07
5.372813421323326e-04	8.551632e+00	1.011369e+01	1.710404e-03	2.690496e-07
5.772813421323327e-04	9.629128e+00	1.136274e+01	1.919385e-03	2.787571e-07
6.172813421323328e-04	1.074312e+01	1.264944e+01	2.134549e-03	2.876357e-07
6.572813421323329e-04	1.189046e+01	1.396992e+01	2.355258e-03	2.957568e-07
6.997813421323330e-04	1.314120e+01	1.540444e+01	2.595223e-03	3.045281e-07
7.047813421323330e-04	1.329079e+01	1.557560e+01	2.624210e-03	3.110217e-07
7.147813421323330e-04	1.359110e+01	1.591903e+01	2.683566e-03	3.326396e-07
7.400017013304210e-04	1.435538e+01	1.679178e+01	2.835917e-03	4.028986e-07
8.000017013304211e-04	1.621193e+01	1.890419e+01	3.206233e-03	5.891621e-07
8.600017013304212e-04	1.811749e+01	2.106141e+01	3.584891e-03	7.835948e-07
9.200017013304214e-04	2.006622e+01	2.325645e+01	3.970302e-03	9.826474e-07
1.000001701330422e-03	2.272192e+01	2.623067e+01	4.492618e-03	1.253377e-06
1.080001701330422e-03	2.543246e+01	2.924697e+01	5.022404e-03	1.528825e-06
1.180001701330422e-03	2.888232e+01	3.305931e+01	5.692118e-03	1.878151e-06
1.240001701330422e-03	3.097853e+01	3.536189e+01	6.096676e-03	2.089785e-06
1.260001701330422e-03	3.168073e+01	3.613098e+01	6.231843e-03	2.178088e-06
1.280001701330422e-03	3.238363e+01	3.690013e+01	6.374016e-03	2.316290e-06
1.281038319651757e-03	3.241981e+01	3.693976e+01	6.384455e-03	2.349656e-06
1.283111556294427e-03	3.249110e+01	3.701801e+01	6.411058e-03	2.521594e-06
1.286013172230549e-03	3.258819e+01	3.712511e+01	6.470224e-03	3.010354e-06
1.289351187634727e-03	3.269399e+01	3.724314e+01	6.590353e-03	4.106554e-06
1.292809286729605e-03	3.279377e+01	3.735677e+01	6.801254e-03	6.133971e-06
1.296857007553441e-03	3.289919e+01	3.748022e+01	7.189600e-03	9.492942e-06
1.297521515753211e-03	3.291417e+01	3.749840e+01	7.269114e-03	1.026015e-05
1.297545404834935e-03	3.291372e+01	3.749809e+01	7.273405e-03	1.038610e-05
1.297594523751910e-03	3.290971e+01	3.749461e+01	7.336062e-03	1.093456e-05
1.297602568273076e-03	3.290715e+01	3.749223e+01	7.360137e-03	1.120942e-05
1.297613294301297e-03	3.289965e+01	3.748512e+01	7.412909e-03	1.197752e-05
1.297634746357738e-03	3.286597e+01	3.745314e+01	7.673923e-03	1.532659e-05
1.297653391100015e-03	3.280011e+01	3.739065e+01	8.253782e-03	2.177757e-05
1.297669063413963e-03	3.268447e+01	3.728096e+01	9.290288e-03	3.303405e-05
1.297683536914210e-03	3.251231e+01	3.711845e+01	1.109328e-02	4.967613e-05
1.297685925369270e-03	3.247190e+01	3.708031e+01	1.151600e-02	5.357816e-05
1.297690702279390e-03	3.236448e+01	3.697838e+01	1.245020e-02	6.399937e-05
1.297700256099629e-03	3.208012e+01	3.670871e+01	1.495202e-02	9.155848e-05
1.297711131335882e-03	3.160591e+01	3.625927e+01	1.914398e-02	1.374700e-04
1.297724739488322e-03	3.069473e+01	3.539658e+01	2.726145e-02	2.255682e-04
1.297739448542381e-03	2.919705e+01	3.398158e+01	4.096769e-02	3.700383e-04
1.297755017776319e-03	2.691523e+01	3.183230e+01	6.242403e-02	5.894508e-04
1.297772003505271e-03	2.375731e+01	2.887462e+01	9.340671e-02	8.913781e-04
1.297792127405412e-03	1.966382e+01	2.507128e+01	1.324010e-01	1.279632e-03
1.297795389098921e-03	1.903907e+01	2.449581e+01	1.380579e-01	1.338377e-03
1.297801912485940e-03	1.800312e+01	2.355249e+01	1.483851e-01	1.434683e-03
1.297814959259977e-03	1.632869e+01	2.204711e+01	1.629223e-01	1.588392e-03
1.297817534007778e-03	1.608231e+01	2.183040e+01	1.647393e-01	1.610522e-03
1.297822683503381e-03	1.574338e+01	2.154540e+01	1.678961e-01	1.639637e-03
1.297832982494586e-03	1.525316e+01	2.114644e+01	1.719747e-01	1.680430e-03
1.297843854123282e-03	1.492631e+01	2.087473e+01	1.744703e-01	1.708239e-03
1.297856353123938e-03	1.470444e+01	2.066893e+01	1.764719e-01	1.729309e-03
1.297866639031488e-03	1.458254e+01	2.055024e+01	1.776457e-01	1.741478e-03
1.297880881405653e-03	1.446893e+01	2.044152e+01	1.787668e-01	1.752662e-03
1.297901954645355e-03	1.436881e+01	2.034541e+01	1.797981e-01	1.762603e-03
1.297944101124759e-03	1.427363e+01	2.025452e+01	1.807829e-01	1.772149e-03
1.298026577707562e-03	1.420556e+01	2.018989e+01	1.813791e-01	1.779276e-03
1.298129851676861e-03	1.418131e+01	2.016783e+01	1.815873e-01	1.782192e-03
1.299823530152632e-03	1.417003e+01	2.017854e+01	1.825308e-01	1.792008e-03
1.578896316941840e-03	1.420841e+01	2.380616e+01	3.271634e-01	3.232535e-03
1.838896316941841e-03	1.423179e+01	2.718067e+01	4.621222e-01	4.576698e-03
2.138896316941842e-03	1.425192e+01	3.100932e+01	6.152376e-01	6.101703e-03
2.498896316941843e-03	1.427052e+01	3.542807e+01	7.918839e-01	7.861074e-03
2.918896316941844e-03	1.428738e+01	4.022947e+01	9.838263e-01	9.772798e-03
3.338896316941845e-03	1.430058e+01	4.454156e+01	1.156340e+00	1.149102e-02
3.758896316941846e-03	1.431097e+01	4.827240e+01	1.305852e+00	1.298016e-02
4.178896316941847e-03	1.431897e+01	5.134795e+01	1.429470e+00	1.421141e-02
4.598896316941848e-03	1.432486e+01	5.370987e+01	1.524896e+00	1.516189e-02
5.018896316941849e-03	1.432877e+01	5.531446e+01	1.590399e+00	1.581435e-02
5.438896316941850e-03	1.433079e+01	5.613242e+01	1.624806e+00	1.615711e-02
5.858896316941851e-03	1.433094e+01	5.614874e+01	1.627503e+00	1.618405e-02
6.278896316941852e-03	1.432925e+01	5.536267e+01	1.598437e+00	1.589466e-02
6.698896316941853e-03	1.432566e+01	5.378752e+01	1.538115e+00	1.529397e-02
7.058896316941854e-03	1.432103e+01	5.182952e+01	1.462315e+00	1.453911e-02
7.478896316941855e-03	1.431370e+01	4.887081e+01	1.347135e+00	1.339205e-02
7.878896316941853e-03	1.430458e+01	4.542242e+01	1.212420e+00	1.205044e-02
8.278896316941836e-03	1.429305e+01	4.141342e+01	1.055463e+00	1.048730e-02
8.678896316941820e-03	1.427850e+01	3.690604e+01	8.787525e-01	8.727423e-03
9.078896316941804e-03	1.425975e+01	3.196960e+01	6.851039e-01	6.798855e-03
9.458896316941788e-03	1.423562e+01	2.694986e+01	4.882793e-01	4.838660e-03
9.818896316941774e-03	1.420109e+01	2.195435e+01	2.929604e-01	2.893487e-03
9.998896316941766e-03	1.417359e+01	1.937932e+01	1.929895e-01	1.897921e-03
1.011889631694176e-02	1.414525e+01	1.762611e+01	1.258574e-01	1.229466e-03
1.015889631694176e-02	1.413168e+01	1.702851e+01	1.034887e-01	1.006895e-03
1.017889631694176e-02	1.412300e+01	1.672325e+01	9.234430e-02	8.960962e-04
1.019889631694176e-02	1.411023e+01	1.640637e+01	8.127746e-02	7.863184e-04
1.021889631694176e-02	1.409587e+01	1.606433e+01	7.045475e-02	6.790910e-04
1.023889631694176e-02	1.409171e+01	1.569089e+01	6.006543e-02	5.750995e-04
1.025889631694176e-02	1.408284e+01	1.529913e+01	4.984733e-02	4.731061e-04
1.027889631694175e-02	1.406441e+01	1.490198e+01	3.963939e-02	3.718647e-04
1.029889631694175e-02	1.404277e+01	1.449987e+01	2.951941e-02	2.712986e-04
1.031889631694175e-02	1.400376e+01	1.408594e+01	1.948005e-02	1.721312e-04
1.033889631694175e-02	1.394832e+01	1.365654e+01	9.742728e-03	7.470323e-05
1.033901350444175e-02	1.394741e+01	1.365404e+01	9.685003e-03	7.413197e-05
1.034223853735011e-02	1.392926e+01	1.357717e+01	8.177993e-03	5.923746e-05
1.034538857495966e-02	1.390421e+01	1.349521e+01	6.748291e-03	4.540598e-05
1.035174817533874e-02	1.383786e+01	1.331698e+01	4.097803e-03	1.880836e-05
1.035230374349868e-02	1.382858e+01	1.329832e+01	3.893183e-03	1.680427e-05
1.035293867853860e-02	1.381675e+01	1.327589e+01	3.667565e-03	1.462760e-05
1.035430746874643e-02	1.378854e+01	1.322530e+01	3.218431e-03	1.016606e-05
1.035456147107624e-02	1.378273e+01	1.321543e+01	3.140555e-03	9.388297e-06
1.035460360223785e-02	1.378335e+01	1.321531e+01	3.122509e-03	9.104348e-06
1.035466513014613e-02	1.379088e+01	1.322139e+01	3.037725e-03	8.051110e-06
1.035474129451379e-02	1.381028e+01	1.323791e+01	2.792296e-03	5.829416e-06
1.035482129993755e-02	1.383513e+01	1.325879e+01	2.512599e-03	3.136676e-06
1.035484130129350e-02	1.384019e+01	1.326285e+01	2.464188e-03	2.581602e-06
1.035488130400538e-02	1.384692e+01	1.326772e+01	2.380538e-03	1.802580e-06
1.035494774867389e-02	1.385397e+01	1.327210e+01	2.288270e-03	8.876525e-07
1.035501924790037e-02	1.385730e+01	1.327317e+01	2.231711e-03	2.758279e-07
1.035508593013517e-02	1.385767e+01	1.327186e+01	2.201592e-03	-5.979091e-08
1.035513119454538e-02	1.385688e+01	1.327012e+01	2.188531e-03	-2.012735e-07
1.035517077166570e-02	1.385571e+01	1.326821e+01	2.180205e-03	-2.845889e-07
1.035520919737856e-02	1.385429e+01	1.326614e+01	2.174102e-03	-3.433231e-07
1.035525084082243e-02	1.385254e+01	1.326372e+01	2.169103e-03	-3.900983e-07
1.035529233128165e-02	1.385063e+01	1.326119e+01	2.165352e-03	-4.240061e-07
1.035533971436856e-02	1.384830e+01	1.325819e+01	2.162130e-03	-4.512938e-07
1.035539940342734e-02	1.384521e+01	1.325431e+01	2.159166e-03	-4.745626e-07
1.035546943589760e-02	1.384146e+01	1.324965e+01	2.156699e-03	-4.918778e-07
1.035555354696197e-02	1.383683e+01	1.324397e+01	2.154584e-03	-5.040235e-07
1.035577414117948e-02	1.382442e+01	1.322888e+01	2.150928e-03	-5.163179e-07
1.035775061945969e-02	1.371206e+01	1.309292e+01	2.127199e-03	-5.278609e-07
1.036422596490072e-02	1.334513e+01	1.264935e+01	2.050897e-03	-5.521054e-07
1.036907533659561e-02	1.307175e+01	1.231929e+01	1.995304e-03	-5.570399e-07
1.039369085740167e-02	1.170185e+01	1.067030e+01	1.721296e-03	-5.469554e-07
1.041369085740167e-02	1.060849e+01	9.359400e+00	1.503477e-03	-5.384559e-07
1.043369085740167e-02	9.530186e+00	8.070704e+00	1.289778e-03	-5.303887e-07
1.045369085740167e-02	8.467882e+00	6.805657e+00	1.079949e-03	-5.227816e-07
1.047369085740167e-02	7.420697e+00	5.563038e+00	8.738251e-04	-5.156121e-07
1.049369085740167e-02	6.387802e+00	4.341690e+00	6.711817e-04	-5.088590e-07
1.051369085740167e-02	5.368413e+00	3.140520e+00	4.718732e-04	-5.025037e-07
1.053369085740167e-02	4.361790e+00	1.958496e+00	2.756949e-04	-4.965304e-07
1.055369085740166e-02	3.367232e+00	7.946375e-01	8.251877e-05	-4.909276e-07
1.057369085740166e-02	2.384080e+00	-3.519798e-01	-1.078412e-04	-4.856911e-07
1.059369085740166e-02	1.411709e+00	-1.482231e+00	-2.954996e-04	-4.808354e-07
1.061619085740166e-02	3.276882e-01	-2.738694e+00	-5.035761e-04	-4.759023e-07
1.062119085740166e-02	8.926359e-02	-3.014140e+00	-5.494673e-04	-4.757520e-07
1.063119085740166e-02	-3.854772e-01	-3.561793e+00	-6.409818e-04	-4.755843e-07
1.065119085740166e-02	-1.328851e+00	-4.647665e+00	-8.216624e-04	-4.727370e-07
1.069119085740166e-02	-3.192388e+00	-6.783467e+00	-1.176466e-03	-4.652088e-07
1.075119085740166e-02	-5.930447e+00	-9.897789e+00	-1.693918e-03	-4.551382e-07
1.083119085740165e-02	-9.490421e+00	-1.390637e+01	-2.360151e-03	-4.439265e-07
1.091369085740165e-02	-1.307356e+01	-1.789794e+01	-3.023470e-03	-4.352805e-07
1.091994085740165e-02	-1.334168e+01	-1.819491e+01	-3.073572e-03	-4.413788e-07
1.092744085740165e-02	-1.366257e+01	-1.855001e+01	-3.134999e-03	-4.645513e-07
1.095289158212103e-02	-1.474685e+01	-1.974746e+01	-3.344098e-03	-5.598997e-07
1.103289158212103e-02	-1.811773e+01	-2.344883e+01	-3.992478e-03	-8.802374e-07
1.109289158212102e-02	-2.061184e+01	-2.616694e+01	-4.469196e-03	-1.122067e-06
1.115289158212102e-02	-2.308067e+01	-2.884137e+01	-4.938552e-03	-1.362889e-06
1.119289158212102e-02	-2.471393e+01	-3.060234e+01	-5.247722e-03	-1.522721e-06
1.123289158212102e-02	-2.633793e+01	-3.234706e+01	-5.554129e-03	-1.681949e-06
1.125289158212102e-02	-2.714664e+01	-3.321365e+01	-5.706345e-03	-1.761334e-06
1.127289158212102e-02	-2.795325e+01	-3.407653e+01	-5.857937e-03	-1.840567e-06
1.129289158212102e-02	-2.875782e+01	-3.493583e+01	-6.008908e-03	-1.919648e-06
1.133289158212101e-02	-3.036103e+01	-3.664400e+01	-6.309081e-03	-2.077353e-06
1.137539158212101e-02	-3.205656e+01	-3.844510e+01	-6.625532e-03	-2.246372e-06
1.138039158212101e-02	-3.225516e+01	-3.865568e+01	-6.663783e-03	-2.291191e-06
1.138373895114092e-02	-3.238738e+01	-3.879596e+01	-6.694342e-03	-2.384093e-06
1.138663328251346e-02	-3.250000e+01	-3.891570e+01	-6.734076e-03	-2.616716e-06
1.138925929454444e-02	-3.259885e+01	-3.902135e+01	-6.796941e-03	-3.126782e-06
1.139218166470744e-02	-3.270253e+01	-3.913333e+01	-6.920798e-03	-4.262718e-06
1.139521952597505e-02	-3.280017e+01	-3.924077e+01	-7.135685e-03	-6.357639e-06
1.139899630034609e-02	-3.290921e+01	-3.936398e+01	-7.556322e-03	-1.002382e-05
1.139919715308866e-02	-3.291422e+01	-3.936981e+01	-7.583770e-03	-1.029175e-05
1.139922488135713e-02	-3.291316e+01	-3.936892e+01	-7.589512e-03	-1.050223e-05
1.139928033789408e-02	-3.290562e+01	-3.936215e+01	-7.693809e-03	-1.143170e-05
1.139928321333723e-02	-3.290474e+01	-3.936134e+01	-7.705488e-03	-1.152709e-05
1.139928896422352e-02	-3.290154e+01	-3.935833e+01	-7.733062e-03	-1.185862e-05
1.139930046599610e-02	-3.288809e+01	-3.934553e+01	-7.822847e-03	-1.321465e-05
1.139932346954127e-02	-3.282580e+01	-3.928625e+01	-8.299030e-03	-1.936397e-05
1.139934331494790e-02	-3.270426e+01	-3.917094e+01	-9.373746e-03	-3.121700e-05
1.139935951880066e-02	-3.253118e+01	-3.900769e+01	-1.122999e-02	-4.794692e-05
1.139936204315167e-02	-3.249094e+01	-3.896974e+01	-1.165482e-02	-5.183145e-05
1.139936709185369e-02	-3.238156e+01	-3.886593e+01	-1.260001e-02	-6.244745e-05
1.139937718925773e-02	-3.208858e+01	-3.858810e+01	-1.517961e-02	-9.084561e-05
1.139938814442724e-02	-3.161868e+01	-3.814278e+01	-1.934749e-02	-1.363405e-04
1.139940172563433e-02	-3.071881e+01	-3.729077e+01	-2.735904e-02	-2.233533e-04
1.139941650474532e-02	-2.922661e+01	-3.588089e+01	-4.101135e-02	-3.673057e-04
1.139943203510377e-02	-2.696426e+01	-3.374981e+01	-6.227778e-02	-5.848670e-04
1.139944903201351e-02	-2.381231e+01	-3.079730e+01	-9.316937e-02	-8.862723e-04
1.139946905244286e-02	-1.973228e+01	-2.700553e+01	-1.320411e-01	-1.273346e-03
1.139947197764735e-02	-1.916489e+01	-2.648248e+01	-1.371903e-01	-1.326740e-03
1.139947782805633e-02	-1.820086e+01	-2.560250e+01	-1.467156e-01	-1.416581e-03
1.139948952887428e-02	-1.659551e+01	-2.415297e+01	-1.608581e-01	-1.564590e-03
1.139949207260303e-02	-1.632518e+01	-2.391324e+01	-1.629490e-01	-1.589070e-03
1.139949716006053e-02	-1.593860e+01	-2.358257e+01	-1.666082e-01	-1.622848e-03
1.139950733497553e-02	-1.537681e+01	-2.311806e+01	-1.713827e-01	-1.670321e-03
1.139951768452629e-02	-1.501358e+01	-2.282106e+01	-1.741030e-01	-1.700706e-03
1.139953134580283e-02	-1.474129e+01	-2.257656e+01	-1.764788e-01	-1.725816e-03
1.139955776410039e-02	-1.446950e+01	-2.231339e+01	-1.790678e-01	-1.752838e-03
1.139960795418536e-02	-1.429158e+01	-2.214268e+01	-1.808956e-01	-1.770537e-03
1.139977153902090e-02	-1.418710e+01	-2.204395e+01	-1.818781e-01	-1.781724e-03
1.149304336067644e-02	-1.418609e+01	-2.317245e+01	-2.339209e-01	-2.301005e-03
1.159304336067644e-02	-1.420023e+01	-2.440908e+01	-2.895483e-01	-2.855297e-03
1.171304336067644e-02	-1.421402e+01	-2.590188e+01	-3.560096e-01	-3.517519e-03
1.185304336067643e-02	-1.422726e+01	-2.764858e+01	-4.328688e-01	-4.283313e-03
1.201304336067642e-02	-1.423989e+01	-2.964025e+01	-5.194528e-01	-5.145966e-03
1.217304336067642e-02	-1.425062e+01	-3.161475e+01	-6.043401e-01	-5.991679e-03
1.233304336067641e-02	-1.425995e+01	-3.356053e+01	-6.872079e-01	-6.817244e-03
1.251304336067640e-02	-1.426913e+01	-3.570248e+01	-7.776700e-01	-7.718441e-03
1.269304336067640e-02	-1.427725e+01	-3.778227e+01	-8.648660e-01	-8.587070e-03
1.287304336067639e-02	-1.428445e+01	-3.978857e+01	-9.484795e-01	-9.419998e-03
1.307304336067638e-02	-1.429158e+01	-4.191945e+01	-1.036838e+00	-1.030018e-02
1.327304336067637e-02	-1.429791e+01	-4.393510e+01	-1.120072e+00	-1.112929e-02
1.349304336067636e-02	-1.430408e+01	-4.600643e+01	-1.205330e+00	-1.197855e-02
1.371304336067635e-02	-1.430946e+01	-4.791273e+01	-1.283615e+00	-1.275835e-02
1.395304336067634e-02	-1.431456e+01	-4.979113e+01	-1.360657e+00	-1.352577e-02
1.421304336067633e-02	-1.431926e+01	-5.157514e+01	-1.433827e+00	-1.425461e-02
1.449304336067632e-02	-1.432337e+01	-5.318955e+01	-1.500161e+00	-1.491536e-02
1.481304336067631e-02	-1.432695e+01	-5.462786e+01	-1.559571e+00	-1.550716e-02
1.513304336067630e-02	-1.432940e+01	-5.561732e+01	-1.600980e+00	-1.591967e-02
1.551304336067628e-02	-1.433086e+01	-5.619476e+01	-1.626284e+00	-1.617178e-02
1.589304336067627e-02	-1.433083e+01	-5.611523e+01	-1.625410e+00	-1.616318e-02
1.625304336067625e-02	-1.432938e+01	-5.543433e+01	-1.600491e+00	-1.591508e-02
1.651304336067624e-02	-1.432744e+01	-5.458062e+01	-1.568105e+00	-1.559259e-02
1.667304336067623e-02	-1.432590e+01	-5.390696e+01	-1.542282e+00	-1.533545e-02
1.673304336067623e-02	-1.432527e+01	-5.362562e+01	-1.531457e+00	-1.522765e-02
1.677304336067623e-02	-1.432481e+01	-5.342944e+01	-1.523898e+00	-1.515237e-02
1.691304336067622e-02	-1.432305e+01	-5.268893e+01	-1.495301e+00	-1.486759e-02
1.715304336067621e-02	-1.431954e+01	-5.122806e+01	-1.438672e+00	-1.430365e-02
1.747304336067620e-02	-1.431379e+01	-4.891685e+01	-1.348730e+00	-1.340793e-02
