time	V(a)	V(a1)
0.000000000000000e+00	1.000000e-06	2.922616e-23
6.399999641359955e-09	1.021333e-06	8.155446e-06
1.279999928271991e-08	1.042667e-06	2.850864e-05
2.559999856543982e-08	1.085333e-06	9.106909e-05
5.091289027216971e-08	1.169709e-06	2.527202e-04
7.448240627980742e-08	1.248274e-06	4.260054e-04
1.105641433450684e-07	1.368546e-06	7.085784e-04
3.384424265956772e-07	2.128139e-06	2.536181e-03
6.010750721072550e-07	3.003580e-06	4.652677e-03
8.108876903381350e-07	3.702954e-06	6.344486e-03
1.132316712756760e-06	4.774382e-06	8.936475e-03
1.719613800459137e-06	6.732035e-06	1.367246e-02
2.894207975863891e-06	1.064734e-05	2.314443e-02
5.243396326673400e-06	1.847795e-05	4.208840e-02
9.941773028292416e-06	3.413918e-05	7.997648e-02
1.933852643153045e-05	6.546162e-05	1.557524e-01
3.813203323800652e-05	1.281065e-04	3.073004e-01
5.813203323800652e-05	1.947731e-04	4.685666e-01
7.813203323800652e-05	2.614396e-04	6.298144e-01
9.813203323800652e-05	3.281061e-04	7.910370e-01
1.981320332380065e-04	6.614388e-04	1.596558e+00
4.981320332380065e-04	1.661437e-03	4.000496e+00
9.181320332380075e-04	3.061434e-03	7.301632e+00
1.338132033238009e-03	4.461431e-03	1.047583e+01
1.718132033238010e-03	5.728095e-03	1.319225e+01
1.738132033238010e-03	5.794762e-03	1.333033e+01
1.758132033238010e-03	5.861429e-03	1.346788e+01
1.818132033238010e-03	6.061428e-03	1.387730e+01
2.258132033238011e-03	7.528092e-03	1.671985e+01
2.578132033238012e-03	8.594756e-03	1.858970e+01
2.898132033238012e-03	9.661421e-03	2.027187e+01
3.218132033238013e-03	1.072809e-02	2.174937e+01
3.558132033238014e-03	1.186142e-02	2.307830e+01
3.898132033238015e-03	1.299475e-02	2.414421e+01
4.238132033238016e-03	1.412808e-02	2.493495e+01
4.578132033238017e-03	1.526141e-02	2.544151e+01
4.918132033238018e-03	1.639474e-02	2.565812e+01
5.258132033238019e-03	1.752807e-02	2.558229e+01
5.598132033238020e-03	1.866140e-02	2.521491e+01
5.938132033238020e-03	1.979473e-02	2.456015e+01
6.278132033238021e-03	2.092806e-02	2.362548e+01
6.618132033238022e-03	2.206140e-02	2.242155e+01
6.938132033238023e-03	2.312806e-02	2.105473e+01
7.258132033238024e-03	2.419472e-02	1.947532e+01
7.578132033238025e-03	2.526139e-02	1.769929e+01
7.898132033238022e-03	2.632805e-02	1.574454e+01
8.138132033238012e-03	2.712805e-02	1.417301e+01
8.198132033238010e-03	2.732805e-02	1.376718e+01
8.218132033238009e-03	2.739472e-02	1.363079e+01
8.238132033238008e-03	2.746139e-02	1.349387e+01
8.678132033237990e-03	2.892805e-02	1.035630e+01
9.118132033237972e-03	3.039471e-02	7.021164e+00
9.558132033237954e-03	3.186138e-02	3.552084e+00
9.958132033237938e-03	3.319471e-02	3.378019e-01
9.998132033237937e-03	3.332804e-02	1.524525e-02
1.009813203323793e-02	3.366137e-02	-7.910509e-01
1.047813203323792e-02	3.492804e-02	-3.841117e+00
1.089813203323790e-02	3.632803e-02	-7.146879e+00
1.131813203323788e-02	3.772803e-02	-1.032839e+01
1.175813203323786e-02	3.919470e-02	-1.346792e+01
1.179813203323786e-02	3.932803e-02	-1.374145e+01
1.181813203323786e-02	3.939470e-02	-1.387740e+01
1.185813203323786e-02	3.952803e-02	-1.414762e+01
1.199813203323786e-02	3.999469e-02	-1.507550e+01
1.235813203323784e-02	4.119469e-02	-1.732340e+01
1.267813203323783e-02	4.226135e-02	-1.913658e+01
1.299813203323781e-02	4.332802e-02	-2.075654e+01
1.331813203323780e-02	4.439468e-02	-2.216693e+01
1.365813203323779e-02	4.552802e-02	-2.341997e+01
1.399813203323777e-02	4.666135e-02	-2.440608e+01
1.433813203323776e-02	4.779468e-02	-2.511404e+01
1.467813203323775e-02	4.892801e-02	-2.553578e+01
1.501813203323773e-02	5.006134e-02	-2.566648e+01
1.535813203323772e-02	5.119467e-02	-2.550467e+01
1.569813203323770e-02	5.232800e-02	-2.505217e+01
1.603813203323769e-02	5.346133e-02	-2.431415e+01
1.637813203323768e-02	5.459467e-02	-2.329903e+01
1.669813203323766e-02	5.566133e-02	-2.210080e+01
1.701813203323765e-02	5.672799e-02	-2.067942e+01
1.733813203323764e-02	5.779466e-02	-1.904926e+01
1.763813203323763e-02	5.879465e-02	-1.734596e+01
1.805813203323761e-02	6.019465e-02	-1.470636e+01
1.811813203323761e-02	6.039465e-02	-1.430726e+01
1.813813203323760e-02	6.046132e-02	-1.417309e+01
1.815813203323760e-02	6.052798e-02	-1.403835e+01
1.821813203323760e-02	6.072798e-02	-1.363080e+01
1.865813203323758e-02	6.219465e-02	-1.050366e+01
1.909813203323757e-02	6.366131e-02	-7.176148e+00
1.953813203323755e-02	6.512798e-02	-3.711734e+00
1.995813203323753e-02	6.652797e-02	-3.377898e-01
2.001813203323753e-02	6.672797e-02	1.460484e-01
2.035813203323751e-02	6.786130e-02	2.881810e+00
2.077813203323750e-02	6.926131e-02	6.212585e+00
2.119813203323748e-02	7.066130e-02	9.435355e+00
2.161813203323746e-02	7.206129e-02	1.249410e+01
2.185813203323745e-02	7.286129e-02	1.414769e+01
2.187813203323745e-02	7.292796e-02	1.428198e+01
2.191813203323745e-02	7.306129e-02	1.454885e+01
2.201813203323745e-02	7.339463e-02	1.520584e+01
2.241813203323743e-02	7.472796e-02	1.767744e+01
2.271813203323742e-02	7.572795e-02	1.935018e+01
2.303813203323741e-02	7.679462e-02	2.094483e+01
2.335813203323739e-02	7.786129e-02	2.232800e+01
2.367813203323738e-02	7.892795e-02	2.348574e+01
2.401813203323737e-02	8.006128e-02	2.445578e+01
2.435813203323735e-02	8.119461e-02	2.514711e+01
2.469813203323734e-02	8.232794e-02	2.555183e+01
2.503813203323732e-02	8.346127e-02	2.566534e+01
2.537813203323731e-02	8.459461e-02	2.548633e+01
2.571813203323730e-02	8.572794e-02	2.501686e+01
2.605813203323728e-02	8.686127e-02	2.426226e+01
2.637813203323727e-02	8.792793e-02	2.329926e+01
2.669813203323726e-02	8.899459e-02	2.210101e+01
2.701813203323724e-02	9.006126e-02	2.067961e+01
2.731813203323723e-02	9.106126e-02	1.915712e+01
2.761813203323722e-02	9.206126e-02	1.746461e+01
2.797813203323720e-02	9.326126e-02	1.523042e+01
2.803813203323720e-02	9.346125e-02	1.483832e+01
2.805813203323720e-02	9.352792e-02	1.470643e+01
2.807813203323720e-02	9.359459e-02	1.457396e+01
2.811813203323720e-02	9.372792e-02	1.430728e+01
2.855813203323718e-02	9.519459e-02	1.123417e+01
2.899813203323716e-02	9.666125e-02	7.946742e+00
2.943813203323714e-02	9.812791e-02	4.507712e+00
2.985813203323713e-02	9.952791e-02	1.143835e+00
2.997813203323712e-02	9.992791e-02	1.765023e-01
3.005813203323712e-02	1.001946e-01	-4.686042e-01
3.041813203323710e-02	1.013946e-01	-3.362079e+00
3.083813203323709e-02	1.027946e-01	-6.680937e+00
3.125813203323707e-02	1.041946e-01	-9.883648e+00
3.167813203323706e-02	1.055946e-01	-1.291453e+01
3.193813203323705e-02	1.064612e-01	-1.468149e+01
3.195813203323705e-02	1.065279e-01	-1.481349e+01
3.199813203323704e-02	1.066612e-01	-1.507572e+01
3.209813203323704e-02	1.069946e-01	-1.572077e+01
3.249813203323702e-02	1.083279e-01	-1.813964e+01
3.279813203323701e-02	1.093279e-01	-1.976801e+01
3.311813203323700e-02	1.103946e-01	-2.131124e+01
3.343813203323698e-02	1.114612e-01	-2.263929e+01
3.375813203323697e-02	1.125279e-01	-2.373876e+01
3.407813203323696e-02	1.135945e-01	-2.459855e+01
3.441813203323695e-02	1.147279e-01	-2.523979e+01
3.475813203323693e-02	1.158612e-01	-2.559336e+01
3.509813203323692e-02	1.169945e-01	-2.565525e+01
3.543813203323690e-02	1.181279e-01	-2.542474e+01
3.577813203323689e-02	1.192612e-01	-2.490445e+01
3.609813203323688e-02	1.203279e-01	-2.415534e+01
3.641813203323686e-02	1.213945e-01	-2.316233e+01
3.673813203323685e-02	1.224612e-01	-2.193546e+01
3.705813203323684e-02	1.235279e-01	-2.048712e+01
3.735813203323683e-02	1.245279e-01	-1.894112e+01
3.767813203323681e-02	1.255945e-01	-1.710713e+01
3.789813203323680e-02	1.263279e-01	-1.574487e+01
3.795813203323680e-02	1.265279e-01	-1.536000e+01
3.797813203323680e-02	1.265945e-01	-1.523049e+01
3.799813203323680e-02	1.266612e-01	-1.510037e+01
3.807813203323680e-02	1.269279e-01	-1.457396e+01
3.851813203323678e-02	1.283945e-01	-1.152330e+01
3.895813203323676e-02	1.298612e-01	-8.252820e+00
3.939813203323674e-02	1.313278e-01	-4.824895e+00
3.983813203323672e-02	1.327945e-01	-1.304926e+00
3.997813203323672e-02	1.332612e-01	-1.764910e-01
4.005813203323672e-02	1.335278e-01	4.686159e-01
4.041813203323670e-02	1.347278e-01	3.362091e+00
4.049813203323670e-02	1.349945e-01	4.000546e+00
4.091813203323668e-02	1.363945e-01	7.301681e+00
4.133813203323666e-02	1.377945e-01	1.047588e+01
4.177813203323665e-02	1.392612e-01	1.360499e+01
4.201813203323664e-02	1.400612e-01	1.520601e+01
4.203813203323663e-02	1.401278e-01	1.533564e+01
4.205813203323663e-02	1.401945e-01	1.546467e+01
4.211813203323663e-02	1.403945e-01	1.584805e+01
4.255813203323661e-02	1.418612e-01	1.847884e+01
4.285813203323660e-02	1.428612e-01	2.007324e+01
4.315813203323659e-02	1.438612e-01	2.148950e+01
4.347813203323658e-02	1.449278e-01	2.278969e+01
4.379813203323656e-02	1.459945e-01	2.385978e+01
4.411813203323655e-02	1.470611e-01	2.468895e+01
4.443813203323654e-02	1.481278e-01	2.526885e+01
4.475813203323652e-02	1.491945e-01	2.559361e+01
4.507813203323651e-02	1.502611e-01	2.565996e+01
4.539813203323650e-02	1.513278e-01	2.546722e+01
4.571813203323648e-02	1.523945e-01	2.501734e+01
4.603813203323647e-02	1.534611e-01	2.431486e+01
4.635813203323646e-02	1.545278e-01	2.336688e+01
4.667813203323645e-02	1.555945e-01	2.218297e+01
4.697813203323643e-02	1.565945e-01	2.086937e+01
4.727813203323642e-02	1.575945e-01	1.937056e+01
4.759813203323641e-02	1.586611e-01	1.758270e+01
4.781813203323640e-02	1.593945e-01	1.624938e+01
4.787813203323640e-02	1.595945e-01	1.587200e+01
4.789813203323640e-02	1.596611e-01	1.574494e+01
4.793813203323639e-02	1.597944e-01	1.548894e+01
4.837813203323638e-02	1.612611e-01	1.252067e+01
4.881813203323636e-02	1.627278e-01	9.313541e+00
4.925813203323634e-02	1.641944e-01	5.928736e+00
4.969813203323632e-02	1.656611e-01	2.430828e+00
4.997813203323631e-02	1.665944e-01	1.764801e-01
5.005813203323631e-02	1.668611e-01	-4.686271e-01
5.041813203323629e-02	1.680611e-01	-3.362102e+00
5.083813203323628e-02	1.694611e-01	-6.680959e+00
5.125813203323626e-02	1.708611e-01	-9.883670e+00
5.167813203323624e-02	1.722611e-01	-1.291455e+01
5.211813203323622e-02	1.737278e-01	-1.584811e+01
5.213813203323622e-02	1.737944e-01	-1.597467e+01
5.217813203323622e-02	1.739278e-01	-1.622588e+01
5.227813203323622e-02	1.742611e-01	-1.684257e+01
5.269813203323620e-02	1.756611e-01	-1.924435e+01
5.299813203323619e-02	1.766611e-01	-2.075731e+01
5.329813203323618e-02	1.776611e-01	-2.208605e+01
5.361813203323616e-02	1.787277e-01	-2.328706e+01
5.393813203323615e-02	1.797944e-01	-2.425295e+01
5.425813203323614e-02	1.808611e-01	-2.497396e+01
5.457813203323612e-02	1.819277e-01	-2.544281e+01
5.489813203323611e-02	1.829944e-01	-2.565477e+01
5.521813203323610e-02	1.840611e-01	-2.560769e+01
5.553813203323608e-02	1.851277e-01	-2.530205e+01
5.585813203323607e-02	1.861944e-01	-2.474094e+01
5.617813203323606e-02	1.872611e-01	-2.393003e+01
5.649813203323605e-02	1.883277e-01	-2.287749e+01
5.679813203323603e-02	1.893277e-01	-2.168071e+01
5.709813203323602e-02	1.903277e-01	-2.029152e+01
5.739813203323601e-02	1.913277e-01	-1.872223e+01
5.769813203323600e-02	1.923277e-01	-1.698678e+01
5.775813203323599e-02	1.925277e-01	-1.662107e+01
5.779813203323599e-02	1.926611e-01	-1.637397e+01
5.783813203323599e-02	1.927944e-01	-1.612426e+01
5.827813203323597e-02	1.942610e-01	-1.321836e+01
5.871813203323595e-02	1.957277e-01	-1.006029e+01
5.915813203323594e-02	1.971944e-01	-6.710295e+00
5.959813203323592e-02	1.986610e-01	-3.232289e+00
5.997813203323590e-02	1.999277e-01	-1.764697e-01
6.005813203323590e-02	2.001944e-01	4.686379e-01
6.041813203323589e-02	2.013944e-01	3.362113e+00
6.083813203323587e-02	2.027944e-01	6.680970e+00
6.097813203323586e-02	2.032610e-01	7.764246e+00
6.139813203323585e-02	2.046610e-01	1.091574e+01
6.181813203323583e-02	2.060610e-01	1.387746e+01
6.223813203323581e-02	2.074610e-01	1.659793e+01
6.227813203323581e-02	2.075944e-01	1.684267e+01
6.235813203323581e-02	2.078610e-01	1.732409e+01
6.279813203323589e-02	2.093277e-01	1.976850e+01
6.309813203323598e-02	2.103277e-01	2.122148e+01
6.339813203323608e-02	2.113277e-01	2.248612e+01
6.369813203323617e-02	2.123277e-01	2.355120e+01
6.401813203323627e-02	2.133943e-01	2.445670e+01
6.433813203323636e-02	2.144610e-01	2.511526e+01
6.465813203323646e-02	2.155277e-01	2.552023e+01
6.497813203323656e-02	2.165943e-01	2.566753e+01
6.529813203323666e-02	2.176610e-01	2.555566e+01
6.561813203323676e-02	2.187277e-01	2.518576e+01
6.593813203323685e-02	2.197943e-01	2.456156e+01
6.623813203323695e-02	2.207943e-01	2.375098e+01
6.653813203323704e-02	2.217943e-01	2.272961e+01
6.683813203323713e-02	2.227943e-01	2.150651e+01
6.713813203323722e-02	2.237943e-01	2.009254e+01
6.757813203323736e-02	2.252610e-01	1.770005e+01
6.765813203323738e-02	2.255277e-01	1.722732e+01
6.769813203323739e-02	2.256610e-01	1.698684e+01
6.813813203323753e-02	2.271277e-01	1.417306e+01
6.857813203323766e-02	2.285943e-01	1.108889e+01
6.901813203323780e-02	2.300610e-01	7.793184e+00
6.945813203323793e-02	2.315276e-01	4.348804e+00
6.987813203323806e-02	2.329276e-01	9.826465e-01
6.999813203323810e-02	2.333276e-01	1.517790e-02
7.009813203323813e-02	2.336610e-01	-7.911197e-01
7.047813203323824e-02	2.349276e-01	-3.841186e+00
7.089813203323837e-02	2.363276e-01	-7.146946e+00
7.131813203323850e-02	2.377276e-01	-1.032846e+01
7.173813203323863e-02	2.391276e-01	-1.333041e+01
7.217813203323876e-02	2.405943e-01	-1.622592e+01
7.235813203323882e-02	2.411943e-01	-1.732417e+01
7.239813203323883e-02	2.413276e-01	-1.756081e+01
7.247813203323886e-02	2.415943e-01	-1.802572e+01
7.291813203323899e-02	2.430610e-01	-2.037165e+01
7.321813203323908e-02	2.440609e-01	-2.175077e+01
7.351813203323918e-02	2.450610e-01	-2.293685e+01
7.381813203323927e-02	2.460610e-01	-2.391936e+01
7.411813203323936e-02	2.470609e-01	-2.468958e+01
7.441813203323945e-02	2.480609e-01	-2.524068e+01
7.473813203323955e-02	2.491276e-01	-2.558152e+01
7.505813203323965e-02	2.501943e-01	-2.566407e+01
7.537813203323974e-02	2.512609e-01	-2.548748e+01
7.569813203323984e-02	2.523276e-01	-2.505354e+01
7.599813203323993e-02	2.533276e-01	-2.441686e+01
7.629813203324003e-02	2.543276e-01	-2.356348e+01
7.659813203324012e-02	2.553276e-01	-2.250097e+01
7.689813203324021e-02	2.563276e-01	-2.123875e+01
7.721813203324031e-02	2.573943e-01	-1.968492e+01
7.745813203324038e-02	2.581943e-01	-1.838817e+01
7.751813203324040e-02	2.583943e-01	-1.804735e+01
7.755813203324041e-02	2.585276e-01	-1.781656e+01
7.763813203324044e-02	2.587942e-01	-1.734655e+01
7.807813203324057e-02	2.602609e-01	-1.457393e+01
7.851813203324071e-02	2.617276e-01	-1.152327e+01
7.895813203324084e-02	2.631942e-01	-8.252783e+00
7.939813203324098e-02	2.646609e-01	-4.824856e+00
7.983813203324111e-02	2.661276e-01	-1.304885e+00
7.997813203324115e-02	2.665942e-01	-1.764501e-01
8.005813203324118e-02	2.668609e-01	4.686581e-01
8.041813203324129e-02	2.680609e-01	3.362134e+00
8.081813203324141e-02	2.693942e-01	6.525132e+00
8.123813203324154e-02	2.707942e-01	9.734654e+00
8.145813203324161e-02	2.715276e-01	1.135172e+01
8.187813203324174e-02	2.729276e-01	1.428204e+01
8.231813203324187e-02	2.743942e-01	1.708479e+01
8.249813203324192e-02	2.749942e-01	1.814026e+01
8.253813203324194e-02	2.751276e-01	1.836703e+01
8.261813203324196e-02	2.753942e-01	1.881184e+01
8.305813203324210e-02	2.768609e-01	2.103867e+01
8.335813203324219e-02	2.778609e-01	2.232914e+01
8.365813203324228e-02	2.788609e-01	2.342143e+01
8.395813203324237e-02	2.798609e-01	2.430586e+01
8.425813203324246e-02	2.808609e-01	2.497456e+01
8.455813203324256e-02	2.818609e-01	2.542161e+01
8.485813203324265e-02	2.828609e-01	2.564304e+01
8.515813203324274e-02	2.838609e-01	2.563688e+01
8.545813203324283e-02	2.848609e-01	2.540318e+01
8.575813203324292e-02	2.858609e-01	2.494402e+01
8.605813203324301e-02	2.868609e-01	2.426348e+01
8.635813203324311e-02	2.878609e-01	2.336759e+01
8.665813203324320e-02	2.888609e-01	2.226431e+01
8.695813203324329e-02	2.898609e-01	2.096342e+01
8.731813203324340e-02	2.910609e-01	1.915789e+01
8.737813203324342e-02	2.912609e-01	1.883249e+01
8.741813203324343e-02	2.913942e-01	1.861183e+01
8.761813203324349e-02	2.920609e-01	1.746509e+01
8.805813203324363e-02	2.935275e-01	1.470640e+01
8.849813203324376e-02	2.949942e-01	1.166715e+01
8.893813203324390e-02	2.964608e-01	8.405333e+00
8.937813203324403e-02	2.979275e-01	4.983161e+00
8.981813203324417e-02	2.993942e-01	1.465926e+00
8.997813203324422e-02	2.999275e-01	1.764410e-01
9.005813203324424e-02	3.001942e-01	-4.686677e-01
9.039813203324434e-02	3.013275e-01	-3.202181e+00
9.079813203324447e-02	3.026608e-01	-6.369026e+00
9.121813203324459e-02	3.040608e-01	-9.585235e+00
9.163813203324472e-02	3.054608e-01	-1.263481e+01
9.207813203324486e-02	3.069275e-01	-1.559315e+01
9.251813203324499e-02	3.083942e-01	-1.825402e+01
9.265813203324504e-02	3.088608e-01	-1.902987e+01
9.269813203324505e-02	3.089941e-01	-1.924484e+01
9.279813203324508e-02	3.093275e-01	-1.976888e+01
9.321813203324521e-02	3.107275e-01	-2.175106e+01
9.351813203324530e-02	3.117275e-01	-2.293717e+01
9.379813203324538e-02	3.126608e-01	-2.386072e+01
9.409813203324548e-02	3.136608e-01	-2.464534e+01
9.439813203324557e-02	3.146608e-01	-2.521124e+01
9.469813203324566e-02	3.156608e-01	-2.555337e+01
9.499813203324575e-02	3.166608e-01	-2.566871e+01
9.529813203324584e-02	3.176608e-01	-2.555623e+01
9.559813203324594e-02	3.186608e-01	-2.521693e+01
9.589813203324603e-02	3.196608e-01	-2.465383e+01
9.619813203324612e-02	3.206608e-01	-2.387191e+01
9.647813203324621e-02	3.215941e-01	-2.295080e+01
9.677813203324630e-02	3.225941e-01	-2.176719e+01
9.715813203324641e-02	3.238608e-01	-1.999211e+01
9.721813203324643e-02	3.240608e-01	-1.968511e+01
9.725813203324644e-02	3.241941e-01	-1.947655e+01
9.769813203324658e-02	3.256608e-01	-1.698682e+01
9.813813203324671e-02	3.271275e-01	-1.417304e+01
9.857813203324685e-02	3.285941e-01	-1.108887e+01
9.901813203324698e-02	3.300608e-01	-7.793159e+00
9.945813203324712e-02	3.315274e-01	-4.348777e+00
9.987813203324725e-02	3.329274e-01	-9.826193e-01
9.999813203324728e-02	3.333274e-01	-1.515007e-02
1.000981320332473e-01	3.336608e-01	7.911482e-01
1.004581320332474e-01	3.348608e-01	3.681670e+00
1.008581320332475e-01	3.361941e-01	6.836602e+00
1.012781320332477e-01	3.375941e-01	1.003237e+01
1.016981320332478e-01	3.389941e-01	1.305373e+01
1.019381320332479e-01	3.397941e-01	1.468155e+01
1.023781320332480e-01	3.412608e-01	1.744286e+01
1.028181320332481e-01	3.427274e-01	1.987142e+01
1.028781320332482e-01	3.429274e-01	2.017416e+01
1.029581320332482e-01	3.431941e-01	2.056663e+01
1.033981320332483e-01	3.446608e-01	2.248674e+01
1.036781320332484e-01	3.455941e-01	2.348726e+01
1.039581320332485e-01	3.465274e-01	2.430618e+01
1.042381320332486e-01	3.474607e-01	2.493716e+01
1.045181320332487e-01	3.483941e-01	2.537532e+01
1.047981320332488e-01	3.493274e-01	2.561727e+01
1.050981320332488e-01	3.503274e-01	2.565668e+01
1.053781320332489e-01	3.512608e-01	2.548800e+01
1.056581320332490e-01	3.521941e-01	2.512224e+01
1.059381320332491e-01	3.531274e-01	2.456223e+01
1.062181320332492e-01	3.540607e-01	2.381230e+01
1.064981320332493e-01	3.549941e-01	2.287825e+01
1.069381320332494e-01	3.564607e-01	2.105629e+01
1.070181320332494e-01	3.567274e-01	2.068071e+01
1.070581320332494e-01	3.568607e-01	2.048801e+01
1.074981320332496e-01	3.583274e-01	1.816169e+01
1.079381320332497e-01	3.597941e-01	1.548890e+01
1.083781320332498e-01	3.612607e-01	1.252062e+01
1.088181320332500e-01	3.627274e-01	9.313491e+00
1.092581320332501e-01	3.641940e-01	5.928682e+00
1.096981320332503e-01	3.656607e-01	2.430772e+00
1.099781320332503e-01	3.665940e-01	1.764240e-01
1.100581320332504e-01	3.668607e-01	-4.686854e-01
1.103981320332505e-01	3.679940e-01	-3.202199e+00
1.107981320332506e-01	3.693274e-01	-6.369043e+00
1.112181320332507e-01	3.707274e-01	-9.585252e+00
1.116381320332508e-01	3.721274e-01	-1.263482e+01
1.120581320332510e-01	3.735273e-01	-1.546474e+01
