v1	V(a)	V(vcc)	I(R1)
0.000000000000000e+00	0.000000e+00	0.000000e+00	0.000000e+00
1.000000000000000e+00	9.961019e-01	1.000000e+00	8.293947e-07
2.000000000000000e+00	1.992204e+00	2.000000e+00	1.658789e-06
3.000000000000000e+00	2.988306e+00	3.000000e+00	2.488184e-06
4.000000000000000e+00	3.984407e+00	4.000000e+00	3.317579e-06
5.000000000000000e+00	4.980509e+00	5.000000e+00	4.146973e-06
6.000000000000000e+00	5.976611e+00	6.000000e+00	4.976368e-06
7.000000000000000e+00	6.972713e+00	7.000000e+00	5.805763e-06
8.000000000000000e+00	7.968815e+00	8.000000e+00	6.635158e-06
9.000000000000000e+00	8.964916e+00	9.000000e+00	7.464552e-06
1.000000000000000e+01	9.961019e+00	1.000000e+01	8.293947e-06
1.100000000000000e+01	1.095712e+01	1.100000e+01	9.123341e-06
1.200000000000000e+01	1.195322e+01	1.200000e+01	9.952736e-06
1.300000000000000e+01	1.294932e+01	1.300000e+01	1.078213e-05
1.400000000000000e+01	1.394543e+01	1.400000e+01	1.161153e-05
1.500000000000000e+01	1.494153e+01	1.500000e+01	1.244092e-05
1.600000000000000e+01	1.593763e+01	1.600000e+01	1.327032e-05
1.700000000000000e+01	1.693373e+01	1.700000e+01	1.409971e-05
1.800000000000000e+01	1.792983e+01	1.800000e+01	1.492910e-05
1.900000000000000e+01	1.892594e+01	1.900000e+01	1.575850e-05
2.000000000000000e+01	1.992204e+01	2.000000e+01	1.658789e-05
2.100000000000000e+01	2.091814e+01	2.100000e+01	1.741729e-05
2.200000000000000e+01	2.191424e+01	2.200000e+01	1.824668e-05
2.300000000000000e+01	2.291034e+01	2.300000e+01	1.907608e-05
2.400000000000000e+01	2.390644e+01	2.400000e+01	1.990547e-05
2.500000000000000e+01	2.490255e+01	2.500000e+01	2.073487e-05
2.600000000000000e+01	2.589865e+01	2.600000e+01	2.156426e-05
2.700000000000000e+01	2.689475e+01	2.700000e+01	2.239366e-05
2.800000000000000e+01	2.789085e+01	2.800000e+01	2.322305e-05
2.900000000000000e+01	2.888695e+01	2.900000e+01	2.405245e-05
3.000000000000000e+01	2.988305e+01	3.000000e+01	2.488184e-05
3.100000000000000e+01	3.087916e+01	3.100000e+01	2.571124e-05
3.200000000000000e+01	3.187526e+01	3.200000e+01	2.654063e-05
3.300000000000000e+01	3.287136e+01	3.300000e+01	2.737002e-05
3.400000000000000e+01	3.386746e+01	3.400000e+01	2.819942e-05
3.500000000000000e+01	3.486356e+01	3.500000e+01	2.902882e-05
3.600000000000000e+01	3.585966e+01	3.600000e+01	2.985821e-05
3.700000000000000e+01	3.685577e+01	3.700000e+01	3.068760e-05
3.800000000000000e+01	3.785187e+01	3.800000e+01	3.151700e-05
3.900000000000000e+01	3.884797e+01	3.900000e+01	3.234639e-05
4.000000000000000e+01	3.984407e+01	4.000000e+01	3.317579e-05
4.100000000000000e+01	4.084018e+01	4.100000e+01	3.400518e-05
4.200000000000000e+01	4.183628e+01	4.200000e+01	3.483458e-05
4.300000000000000e+01	4.283238e+01	4.300000e+01	3.566397e-05
4.400000000000000e+01	4.382848e+01	4.400000e+01	3.649337e-05
4.500000000000000e+01	4.482458e+01	4.500000e+01	3.732276e-05
4.600000000000000e+01	4.582069e+01	4.600000e+01	3.815216e-05
4.700000000000000e+01	4.681679e+01	4.700000e+01	3.898155e-05
4.800000000000000e+01	4.781289e+01	4.800000e+01	3.981094e-05
4.900000000000000e+01	4.880899e+01	4.900000e+01	4.064034e-05
5.000000000000000e+01	4.980509e+01	5.000000e+01	4.146974e-05
5.100000000000000e+01	5.080119e+01	5.100000e+01	4.229913e-05
5.200000000000000e+01	5.179729e+01	5.200000e+01	4.312853e-05
5.300000000000000e+01	5.279340e+01	5.300000e+01	4.395792e-05
5.400000000000000e+01	5.378950e+01	5.400000e+01	4.478731e-05
5.500000000000000e+01	5.478560e+01	5.500000e+01	4.561671e-05
5.600000000000000e+01	5.578170e+01	5.600000e+01	4.644610e-05
5.700000000000000e+01	5.677781e+01	5.700000e+01	4.727550e-05
5.800000000000000e+01	5.777391e+01	5.800000e+01	4.810489e-05
5.900000000000000e+01	5.877001e+01	5.900000e+01	4.893429e-05
6.000000000000000e+01	5.976611e+01	6.000000e+01	4.976368e-05
6.100000000000000e+01	6.076221e+01	6.100000e+01	5.059308e-05
6.200000000000000e+01	6.175832e+01	6.200000e+01	5.142247e-05
6.300000000000000e+01	6.275442e+01	6.300000e+01	5.225187e-05
6.400000000000000e+01	6.375052e+01	6.400000e+01	5.308126e-05
6.500000000000000e+01	6.474662e+01	6.500000e+01	5.391065e-05
6.600000000000000e+01	6.574272e+01	6.600000e+01	5.474005e-05
6.700000000000000e+01	6.673882e+01	6.700000e+01	5.556945e-05
6.800000000000000e+01	6.773492e+01	6.800000e+01	5.639884e-05
6.900000000000000e+01	6.873103e+01	6.900000e+01	5.722823e-05
7.000000000000000e+01	6.972713e+01	7.000000e+01	5.805763e-05
7.100000000000000e+01	7.072323e+01	7.100000e+01	5.888702e-05
7.200000000000000e+01	7.171933e+01	7.200000e+01	5.971642e-05
7.300000000000000e+01	7.271543e+01	7.300000e+01	6.054581e-05
7.400000000000000e+01	7.371154e+01	7.400000e+01	6.137521e-05
7.500000000000000e+01	7.470764e+01	7.500000e+01	6.220461e-05
7.600000000000000e+01	7.570374e+01	7.600000e+01	6.303400e-05
7.700000000000000e+01	7.669984e+01	7.700000e+01	6.386339e-05
7.800000000000000e+01	7.769595e+01	7.800000e+01	6.469279e-05
7.900000000000000e+01	7.869205e+01	7.900000e+01	6.552218e-05
8.000000000000000e+01	7.968815e+01	8.000000e+01	6.635157e-05
8.100000000000000e+01	8.068425e+01	8.100000e+01	6.718097e-05
8.200000000000000e+01	8.168035e+01	8.200000e+01	6.801036e-05
8.300000000000000e+01	8.267645e+01	8.300000e+01	6.883976e-05
8.400000000000000e+01	8.367255e+01	8.400000e+01	6.966916e-05
8.500000000000000e+01	8.466866e+01	8.500000e+01	7.049855e-05
8.600000000000000e+01	8.566476e+01	8.600000e+01	7.132794e-05
8.700000000000000e+01	8.666086e+01	8.700000e+01	7.215734e-05
8.800000000000000e+01	8.765696e+01	8.800000e+01	7.298673e-05
8.900000000000000e+01	8.865306e+01	8.900000e+01	7.381613e-05
9.000000000000000e+01	8.964916e+01	9.000000e+01	7.464553e-05
9.100000000000000e+01	9.064527e+01	9.100000e+01	7.547492e-05
9.200000000000000e+01	9.164137e+01	9.200000e+01	7.630431e-05
9.300000000000000e+01	9.263747e+01	9.300000e+01	7.713371e-05
9.400000000000000e+01	9.363358e+01	9.400000e+01	7.796310e-05
9.500000000000000e+01	9.462968e+01	9.500000e+01	7.879249e-05
9.600000000000000e+01	9.562578e+01	9.600000e+01	7.962189e-05
9.700000000000000e+01	9.662188e+01	9.700000e+01	8.045129e-05
9.800000000000000e+01	9.761798e+01	9.800000e+01	8.128068e-05
9.900000000000000e+01	9.861408e+01	9.900000e+01	8.211008e-05
1.000000000000000e+02	9.961018e+01	1.000000e+02	8.293947e-05
1.010000000000000e+02	1.006063e+02	1.010000e+02	8.376886e-05
1.020000000000000e+02	1.016024e+02	1.020000e+02	8.459826e-05
1.030000000000000e+02	1.025985e+02	1.030000e+02	8.542765e-05
1.040000000000000e+02	1.035946e+02	1.040000e+02	8.625705e-05
1.050000000000000e+02	1.045907e+02	1.050000e+02	8.708645e-05
1.060000000000000e+02	1.055868e+02	1.060000e+02	8.791584e-05
1.070000000000000e+02	1.065829e+02	1.070000e+02	8.874523e-05
1.080000000000000e+02	1.075790e+02	1.080000e+02	8.957463e-05
1.090000000000000e+02	1.085751e+02	1.090000e+02	9.040402e-05
1.100000000000000e+02	1.095712e+02	1.100000e+02	9.123341e-05
1.110000000000000e+02	1.105673e+02	1.110000e+02	9.206282e-05
1.120000000000000e+02	1.115634e+02	1.120000e+02	9.289221e-05
1.130000000000000e+02	1.125595e+02	1.130000e+02	9.372160e-05
1.140000000000000e+02	1.135556e+02	1.140000e+02	9.455100e-05
1.150000000000000e+02	1.145517e+02	1.150000e+02	9.538039e-05
1.160000000000000e+02	1.155478e+02	1.160000e+02	9.620978e-05
1.170000000000000e+02	1.165439e+02	1.170000e+02	9.703918e-05
1.180000000000000e+02	1.175400e+02	1.180000e+02	9.786858e-05
1.190000000000000e+02	1.185361e+02	1.190000e+02	9.869797e-05
1.200000000000000e+02	1.195322e+02	1.200000e+02	9.952737e-05
1.210000000000000e+02	1.205283e+02	1.210000e+02	1.003568e-04
1.220000000000000e+02	1.215244e+02	1.220000e+02	1.011862e-04
1.230000000000000e+02	1.225205e+02	1.230000e+02	1.020155e-04
1.240000000000000e+02	1.235166e+02	1.240000e+02	1.028449e-04
1.250000000000000e+02	1.245127e+02	1.250000e+02	1.036743e-04
1.260000000000000e+02	1.255088e+02	1.260000e+02	1.045037e-04
1.270000000000000e+02	1.265049e+02	1.270000e+02	1.053331e-04
1.280000000000000e+02	1.275010e+02	1.280000e+02	1.061625e-04
1.290000000000000e+02	1.284971e+02	1.290000e+02	1.069919e-04
1.300000000000000e+02	1.294932e+02	1.300000e+02	1.078213e-04
1.310000000000000e+02	1.304893e+02	1.310000e+02	1.086507e-04
1.320000000000000e+02	1.314854e+02	1.320000e+02	1.094801e-04
1.330000000000000e+02	1.324816e+02	1.330000e+02	1.103095e-04
1.340000000000000e+02	1.334776e+02	1.340000e+02	1.111389e-04
1.350000000000000e+02	1.344738e+02	1.350000e+02	1.119683e-04
1.360000000000000e+02	1.354698e+02	1.360000e+02	1.127977e-04
1.370000000000000e+02	1.364660e+02	1.370000e+02	1.136271e-04
1.380000000000000e+02	1.374621e+02	1.380000e+02	1.144565e-04
1.390000000000000e+02	1.384582e+02	1.390000e+02	1.152859e-04
1.400000000000000e+02	1.394543e+02	1.400000e+02	1.161153e-04
1.410000000000000e+02	1.404504e+02	1.410000e+02	1.169447e-04
1.420000000000000e+02	1.414465e+02	1.420000e+02	1.177740e-04
1.430000000000000e+02	1.424426e+02	1.430000e+02	1.186034e-04
1.440000000000000e+02	1.434387e+02	1.440000e+02	1.194328e-04
1.450000000000000e+02	1.444348e+02	1.450000e+02	1.202622e-04
1.460000000000000e+02	1.454309e+02	1.460000e+02	1.210916e-04
1.470000000000000e+02	1.464270e+02	1.470000e+02	1.219210e-04
1.480000000000000e+02	1.474231e+02	1.480000e+02	1.227504e-04
1.490000000000000e+02	1.484192e+02	1.490000e+02	1.235798e-04
1.500000000000000e+02	1.494153e+02	1.500000e+02	1.244092e-04
1.510000000000000e+02	1.504114e+02	1.510000e+02	1.252386e-04
1.520000000000000e+02	1.514075e+02	1.520000e+02	1.260680e-04
1.530000000000000e+02	1.524036e+02	1.530000e+02	1.268974e-04
1.540000000000000e+02	1.533997e+02	1.540000e+02	1.277268e-04
1.550000000000000e+02	1.543958e+02	1.550000e+02	1.285562e-04
1.560000000000000e+02	1.553919e+02	1.560000e+02	1.293856e-04
1.570000000000000e+02	1.563880e+02	1.570000e+02	1.302150e-04
1.580000000000000e+02	1.573841e+02	1.580000e+02	1.310444e-04
1.590000000000000e+02	1.583802e+02	1.590000e+02	1.318738e-04
1.600000000000000e+02	1.593763e+02	1.600000e+02	1.327031e-04
1.610000000000000e+02	1.603724e+02	1.610000e+02	1.335326e-04
1.620000000000000e+02	1.613685e+02	1.620000e+02	1.343619e-04
1.630000000000000e+02	1.623646e+02	1.630000e+02	1.351913e-04
1.640000000000000e+02	1.633607e+02	1.640000e+02	1.360207e-04
1.650000000000000e+02	1.643568e+02	1.650000e+02	1.368501e-04
1.660000000000000e+02	1.653529e+02	1.660000e+02	1.376795e-04
1.670000000000000e+02	1.663490e+02	1.670000e+02	1.385089e-04
1.680000000000000e+02	1.673451e+02	1.680000e+02	1.393383e-04
1.690000000000000e+02	1.683412e+02	1.690000e+02	1.401677e-04
1.700000000000000e+02	1.693373e+02	1.700000e+02	1.409971e-04
1.710000000000000e+02	1.703334e+02	1.710000e+02	1.418265e-04
1.720000000000000e+02	1.713295e+02	1.720000e+02	1.426559e-04
1.730000000000000e+02	1.723256e+02	1.730000e+02	1.434853e-04
1.740000000000000e+02	1.733217e+02	1.740000e+02	1.443147e-04
1.750000000000000e+02	1.743178e+02	1.750000e+02	1.451441e-04
1.760000000000000e+02	1.753139e+02	1.760000e+02	1.459735e-04
1.770000000000000e+02	1.763100e+02	1.770000e+02	1.468029e-04
1.780000000000000e+02	1.773061e+02	1.780000e+02	1.476323e-04
1.790000000000000e+02	1.783022e+02	1.790000e+02	1.484617e-04
1.800000000000000e+02	1.792983e+02	1.800000e+02	1.492911e-04
1.810000000000000e+02	1.802944e+02	1.810000e+02	1.501204e-04
1.820000000000000e+02	1.812905e+02	1.820000e+02	1.509498e-04
1.830000000000000e+02	1.822866e+02	1.830000e+02	1.517792e-04
1.840000000000000e+02	1.832827e+02	1.840000e+02	1.526086e-04
1.850000000000000e+02	1.842788e+02	1.850000e+02	1.534380e-04
1.860000000000000e+02	1.852749e+02	1.860000e+02	1.542674e-04
1.870000000000000e+02	1.862710e+02	1.870000e+02	1.550968e-04
1.880000000000000e+02	1.872672e+02	1.880000e+02	1.559262e-04
1.890000000000000e+02	1.882632e+02	1.890000e+02	1.567556e-04
1.900000000000000e+02	1.892594e+02	1.900000e+02	1.575850e-04
1.910000000000000e+02	1.902554e+02	1.910000e+02	1.584144e-04
1.920000000000000e+02	1.912516e+02	1.920000e+02	1.592438e-04
1.930000000000000e+02	1.922477e+02	1.930000e+02	1.600732e-04
1.940000000000000e+02	1.932438e+02	1.940000e+02	1.609026e-04
1.950000000000000e+02	1.942399e+02	1.950000e+02	1.617320e-04
1.960000000000000e+02	1.952360e+02	1.960000e+02	1.625614e-04
1.970000000000000e+02	1.962321e+02	1.970000e+02	1.633908e-04
1.980000000000000e+02	1.972282e+02	1.980000e+02	1.642202e-04
1.990000000000000e+02	1.982243e+02	1.990000e+02	1.650496e-04
2.000000000000000e+02	1.992204e+02	2.000000e+02	1.658789e-04
2.010000000000000e+02	2.002165e+02	2.010000e+02	1.667083e-04
2.020000000000000e+02	2.012126e+02	2.020000e+02	1.675377e-04
2.030000000000000e+02	2.022087e+02	2.030000e+02	1.683671e-04
2.040000000000000e+02	2.032048e+02	2.040000e+02	1.691965e-04
2.050000000000000e+02	2.042009e+02	2.050000e+02	1.700259e-04
2.060000000000000e+02	2.051970e+02	2.060000e+02	1.708553e-04
2.070000000000000e+02	2.061931e+02	2.070000e+02	1.716847e-04
2.080000000000000e+02	2.071892e+02	2.080000e+02	1.725141e-04
2.090000000000000e+02	2.081853e+02	2.090000e+02	1.733435e-04
2.100000000000000e+02	2.091814e+02	2.100000e+02	1.741729e-04
2.110000000000000e+02	2.101775e+02	2.110000e+02	1.750023e-04
2.120000000000000e+02	2.111736e+02	2.120000e+02	1.758317e-04
2.130000000000000e+02	2.121697e+02	2.130000e+02	1.766611e-04
2.140000000000000e+02	2.131658e+02	2.140000e+02	1.774905e-04
2.150000000000000e+02	2.141619e+02	2.150000e+02	1.783199e-04
2.160000000000000e+02	2.151580e+02	2.160000e+02	1.791493e-04
2.170000000000000e+02	2.161541e+02	2.170000e+02	1.799787e-04
2.180000000000000e+02	2.171502e+02	2.180000e+02	1.808080e-04
2.190000000000000e+02	2.181463e+02	2.190000e+02	1.816374e-04
2.200000000000000e+02	2.191424e+02	2.200000e+02	1.824668e-04
2.210000000000000e+02	2.201385e+02	2.210000e+02	1.832962e-04
2.220000000000000e+02	2.211346e+02	2.220000e+02	1.841256e-04
2.230000000000000e+02	2.221307e+02	2.230000e+02	1.849550e-04
2.240000000000000e+02	2.231268e+02	2.240000e+02	1.857844e-04
2.250000000000000e+02	2.241229e+02	2.250000e+02	1.866138e-04
2.260000000000000e+02	2.251190e+02	2.260000e+02	1.874432e-04
2.270000000000000e+02	2.261151e+02	2.270000e+02	1.882726e-04
2.280000000000000e+02	2.271112e+02	2.280000e+02	1.891020e-04
2.290000000000000e+02	2.281073e+02	2.290000e+02	1.899314e-04
2.300000000000000e+02	2.291034e+02	2.300000e+02	1.907608e-04
2.310000000000000e+02	2.300995e+02	2.310000e+02	1.915902e-04
2.320000000000000e+02	2.310956e+02	2.320000e+02	1.924196e-04
2.330000000000000e+02	2.320917e+02	2.330000e+02	1.932490e-04
2.340000000000000e+02	2.330878e+02	2.340000e+02	1.940784e-04
2.350000000000000e+02	2.340839e+02	2.350000e+02	1.949078e-04
2.360000000000000e+02	2.350800e+02	2.360000e+02	1.957372e-04
2.370000000000000e+02	2.360761e+02	2.370000e+02	1.965665e-04
2.380000000000000e+02	2.370722e+02	2.380000e+02	1.973959e-04
2.390000000000000e+02	2.380683e+02	2.390000e+02	1.982253e-04
2.400000000000000e+02	2.390644e+02	2.400000e+02	1.990547e-04
2.410000000000000e+02	2.400605e+02	2.410000e+02	1.998841e-04
2.420000000000000e+02	2.410566e+02	2.420000e+02	2.007135e-04
2.430000000000000e+02	2.420527e+02	2.430000e+02	2.015429e-04
2.440000000000000e+02	2.430488e+02	2.440000e+02	2.023723e-04
2.450000000000000e+02	2.440450e+02	2.450000e+02	2.032017e-04
2.460000000000000e+02	2.450411e+02	2.460000e+02	2.040311e-04
2.470000000000000e+02	2.460372e+02	2.470000e+02	2.048605e-04
2.480000000000000e+02	2.470333e+02	2.480000e+02	2.056899e-04
2.490000000000000e+02	2.480294e+02	2.490000e+02	2.065193e-04
2.500000000000000e+02	2.490255e+02	2.500000e+02	2.073487e-04
2.510000000000000e+02	2.500216e+02	2.510000e+02	2.081781e-04
2.520000000000000e+02	2.510177e+02	2.520000e+02	2.090075e-04
2.530000000000000e+02	2.520138e+02	2.530000e+02	2.098369e-04
2.540000000000000e+02	2.530099e+02	2.540000e+02	2.106663e-04
2.550000000000000e+02	2.540060e+02	2.550000e+02	2.114957e-04
2.560000000000000e+02	2.550021e+02	2.560000e+02	2.123251e-04
2.570000000000000e+02	2.559982e+02	2.570000e+02	2.131544e-04
2.580000000000000e+02	2.569943e+02	2.580000e+02	2.139838e-04
2.590000000000000e+02	2.579904e+02	2.590000e+02	2.148132e-04
2.600000000000000e+02	2.589865e+02	2.600000e+02	2.156426e-04
2.610000000000000e+02	2.599826e+02	2.610000e+02	2.164720e-04
2.620000000000000e+02	2.609787e+02	2.620000e+02	2.173014e-04
2.630000000000000e+02	2.619748e+02	2.630000e+02	2.181308e-04
2.640000000000000e+02	2.629709e+02	2.640000e+02	2.189602e-04
2.650000000000000e+02	2.639670e+02	2.650000e+02	2.197896e-04
2.660000000000000e+02	2.649631e+02	2.660000e+02	2.206190e-04
2.670000000000000e+02	2.659592e+02	2.670000e+02	2.214484e-04
2.680000000000000e+02	2.669553e+02	2.680000e+02	2.222778e-04
2.690000000000000e+02	2.679514e+02	2.690000e+02	2.231072e-04
2.700000000000000e+02	2.689475e+02	2.700000e+02	2.239366e-04
2.710000000000000e+02	2.699436e+02	2.710000e+02	2.247660e-04
2.720000000000000e+02	2.709397e+02	2.720000e+02	2.255954e-04
2.730000000000000e+02	2.719358e+02	2.730000e+02	2.264248e-04
2.740000000000000e+02	2.729319e+02	2.740000e+02	2.272542e-04
2.750000000000000e+02	2.739280e+02	2.750000e+02	2.280836e-04
2.760000000000000e+02	2.749241e+02	2.760000e+02	2.289130e-04
2.770000000000000e+02	2.759202e+02	2.770000e+02	2.297423e-04
2.780000000000000e+02	2.769163e+02	2.780000e+02	2.305717e-04
2.790000000000000e+02	2.779124e+02	2.790000e+02	2.314011e-04
2.800000000000000e+02	2.789085e+02	2.800000e+02	2.322305e-04
2.810000000000000e+02	2.799046e+02	2.810000e+02	2.330599e-04
2.820000000000000e+02	2.809007e+02	2.820000e+02	2.338893e-04
2.830000000000000e+02	2.818968e+02	2.830000e+02	2.347187e-04
2.840000000000000e+02	2.828929e+02	2.840000e+02	2.355481e-04
2.850000000000000e+02	2.838890e+02	2.850000e+02	2.363775e-04
2.860000000000000e+02	2.848851e+02	2.860000e+02	2.372069e-04
2.870000000000000e+02	2.858812e+02	2.870000e+02	2.380363e-04
2.880000000000000e+02	2.868773e+02	2.880000e+02	2.388657e-04
2.890000000000000e+02	2.878734e+02	2.890000e+02	2.396951e-04
2.900000000000000e+02	2.888695e+02	2.900000e+02	2.405245e-04
2.910000000000000e+02	2.898656e+02	2.910000e+02	2.413539e-04
2.920000000000000e+02	2.908617e+02	2.920000e+02	2.421833e-04
2.930000000000000e+02	2.918578e+02	2.930000e+02	2.430127e-04
2.940000000000000e+02	2.928539e+02	2.940000e+02	2.438421e-04
2.950000000000000e+02	2.938500e+02	2.950000e+02	2.446715e-04
2.960000000000000e+02	2.948462e+02	2.960000e+02	2.455009e-04
2.970000000000000e+02	2.958423e+02	2.970000e+02	2.463303e-04
2.980000000000000e+02	2.968383e+02	2.980000e+02	2.471597e-04
2.990000000000000e+02	2.978344e+02	2.990000e+02	2.479891e-04
3.000000000000000e+02	2.988306e+02	3.000000e+02	2.488185e-04
3.010000000000000e+02	2.998267e+02	3.010000e+02	2.496479e-04
3.020000000000000e+02	3.008228e+02	3.020000e+02	2.504772e-04
3.030000000000000e+02	3.018188e+02	3.030000e+02	2.513066e-04
3.040000000000000e+02	3.028150e+02	3.040000e+02	2.521360e-04
3.050000000000000e+02	3.038111e+02	3.050000e+02	2.529654e-04
3.060000000000000e+02	3.048072e+02	3.060000e+02	2.537948e-04
3.070000000000000e+02	3.058033e+02	3.070000e+02	2.546242e-04
3.080000000000000e+02	3.067994e+02	3.080000e+02	2.554536e-04
3.090000000000000e+02	3.077955e+02	3.090000e+02	2.562830e-04
3.100000000000000e+02	3.087916e+02	3.100000e+02	2.571124e-04
3.110000000000000e+02	3.097877e+02	3.110000e+02	2.579418e-04
3.120000000000000e+02	3.107838e+02	3.120000e+02	2.587712e-04
3.130000000000000e+02	3.117799e+02	3.130000e+02	2.596006e-04
3.140000000000000e+02	3.127760e+02	3.140000e+02	2.604300e-04
3.150000000000000e+02	3.137721e+02	3.150000e+02	2.612594e-04
3.160000000000000e+02	3.147682e+02	3.160000e+02	2.620888e-04
3.170000000000000e+02	3.157643e+02	3.170000e+02	2.629182e-04
3.180000000000000e+02	3.167604e+02	3.180000e+02	2.637476e-04
3.190000000000000e+02	3.177565e+02	3.190000e+02	2.645770e-04
3.200000000000000e+02	3.187526e+02	3.200000e+02	2.654064e-04
3.210000000000000e+02	3.197487e+02	3.210000e+02	2.662358e-04
