time	V(D,G)	V(a1)	V(l)
0.000000000000000e+00	1.634646e-22	9.560285e-23	-1.912059e-24
6.399999641359955e-09	1.363262e-05	1.040662e-04	3.392009e-06
1.279999928271991e-08	5.041716e-05	2.242477e-04	6.304969e-06
2.559999856543982e-08	1.714325e-04	4.976661e-04	1.097678e-05
4.577895910516066e-08	4.440214e-04	9.852381e-04	1.604939e-05
6.741278404924486e-08	8.171099e-04	1.562142e-03	1.942636e-05
9.281851295175434e-08	1.329977e-03	2.287494e-03	2.183480e-05
1.252582351460885e-07	2.050510e-03	3.253006e-03	2.361020e-05
1.737895322874516e-07	3.196702e-03	4.733696e-03	2.503245e-05
2.450710608538922e-07	4.946122e-03	6.936820e-03	2.611631e-05
4.147348998375172e-07	9.227511e-03	1.221951e-02	2.750648e-05
1.465043464725256e-06	3.610317e-02	4.502730e-02	3.316032e-05
2.249407225164756e-06	5.619624e-02	6.953818e-02	3.727916e-05
3.818134746043758e-06	9.640764e-02	1.185773e-01	4.550869e-05
6.955589787801761e-06	1.769307e-01	2.167246e-01	6.193359e-05
1.323049987131777e-05	3.383706e-01	4.132906e-01	9.473961e-05
2.578032003834978e-05	6.626343e-01	8.073773e-01	1.604571e-04
4.578032003834978e-05	1.182453e+00	1.437518e+00	2.655674e-04
6.578032003834978e-05	1.705994e+00	2.070213e+00	3.711400e-04
8.578032003834978e-05	2.233580e+00	2.705675e+00	4.771673e-04
1.057803200383498e-04	2.765143e+00	3.343847e+00	5.836397e-04
1.257803200383498e-04	3.300613e+00	3.984668e+00	6.905488e-04
1.457803200383498e-04	3.839924e+00	4.628084e+00	7.978848e-04
1.657803200383498e-04	4.383007e+00	5.274035e+00	9.056389e-04
1.857803200383498e-04	4.929797e+00	5.922466e+00	1.013801e-03
2.057803200383498e-04	5.480227e+00	6.573318e+00	1.122363e-03
2.257803200383498e-04	6.034230e+00	7.226537e+00	1.231315e-03
2.457803200383498e-04	6.591740e+00	7.882066e+00	1.340648e-03
2.657803200383498e-04	7.152693e+00	8.539847e+00	1.450351e-03
2.857803200383498e-04	7.717023e+00	9.199827e+00	1.560418e-03
3.057803200383498e-04	8.284665e+00	9.861950e+00	1.670837e-03
3.257803200383498e-04	8.855555e+00	1.052616e+01	1.781601e-03
3.457803200383498e-04	9.429631e+00	1.119240e+01	1.892699e-03
3.657803200383498e-04	1.000683e+01	1.186062e+01	2.004123e-03
4.057803200383498e-04	1.117033e+01	1.320278e+01	2.227913e-03
4.457803200383498e-04	1.234555e+01	1.455220e+01	2.452899e-03
4.682803200383498e-04	1.301094e+01	1.531389e+01	2.579956e-03
4.732803200383498e-04	1.315948e+01	1.548356e+01	2.608273e-03
4.822449022916942e-04	1.342612e+01	1.578797e+01	2.660264e-03
4.913130899018824e-04	1.369639e+01	1.609622e+01	2.713725e-03
5.228226433851197e-04	1.463956e+01	1.716973e+01	2.901157e-03
5.828226433851199e-04	1.645250e+01	1.922375e+01	3.260973e-03
6.428226433851201e-04	1.828678e+01	2.128979e+01	3.623320e-03
7.028226433851202e-04	2.014097e+01	2.336657e+01	3.987733e-03
7.828226433851204e-04	2.264149e+01	2.614993e+01	4.476335e-03
8.828226433851207e-04	2.580747e+01	2.964771e+01	5.090595e-03
9.828226433851210e-04	2.901177e+01	3.316042e+01	5.707700e-03
1.062822643385121e-03	3.159823e+01	3.597733e+01	6.202713e-03
1.082822643385121e-03	3.224730e+01	3.668203e+01	6.327696e-03
1.085322643385121e-03	3.232832e+01	3.677002e+01	6.345544e-03
1.090322643385121e-03	3.248952e+01	3.694550e+01	6.396375e-03
1.093311412246540e-03	3.258448e+01	3.704964e+01	6.453075e-03
1.096511502930151e-03	3.268331e+01	3.715960e+01	6.560326e-03
1.100019367454297e-03	3.278663e+01	3.727746e+01	6.766444e-03
1.103696360620736e-03	3.288903e+01	3.739816e+01	7.130640e-03
1.104683677637150e-03	3.291426e+01	3.742932e+01	7.261125e-03
1.104713737583202e-03	3.291389e+01	3.742953e+01	7.271269e-03
1.104758029851008e-03	3.290872e+01	3.742700e+01	7.386440e-03
1.104778812015479e-03	3.289919e+01	3.742139e+01	7.576264e-03
1.104797526862673e-03	3.287677e+01	3.740776e+01	8.031192e-03
1.104811732475550e-03	3.284045e+01	3.738543e+01	8.771854e-03
1.104825171021218e-03	3.277459e+01	3.734474e+01	1.008663e-02
1.104838722699665e-03	3.265514e+01	3.727087e+01	1.245948e-02
1.104852529540986e-03	3.243874e+01	3.713694e+01	1.668776e-02
1.104867821355230e-03	3.202679e+01	3.688270e+01	2.495046e-02
1.104881839088793e-03	3.139292e+01	3.649226e+01	3.774046e-02
1.104896790536511e-03	3.031295e+01	3.582907e+01	5.978722e-02
1.104911368331562e-03	2.873214e+01	3.486257e+01	9.251582e-02
1.104927199449747e-03	2.637325e+01	3.343038e+01	1.423149e-01
1.104944007367451e-03	2.336469e+01	3.162398e+01	2.073876e-01
1.104959780448378e-03	2.042676e+01	2.987090e+01	2.688984e-01
1.104967274529223e-03	1.920251e+01	2.912129e+01	2.951571e-01
1.104978682787886e-03	1.773000e+01	2.818062e+01	3.278635e-01
1.104986266549273e-03	1.698140e+01	2.769919e+01	3.438136e-01
1.104995100811731e-03	1.637968e+01	2.731445e+01	3.576232e-01
1.105012769336646e-03	1.562457e+01	2.683096e+01	3.753293e-01
1.105040062478240e-03	1.496861e+01	2.641025e+01	3.889969e-01
1.105068319192259e-03	1.463428e+01	2.619547e+01	3.956620e-01
1.105108424745934e-03	1.442948e+01	2.606461e+01	3.999092e-01
1.105164983770178e-03	1.431515e+01	2.599169e+01	4.021605e-01
1.105248449318064e-03	1.425884e+01	2.595671e+01	4.032254e-01
1.105377104761871e-03	1.423515e+01	2.594309e+01	4.037070e-01
1.108282397595304e-03	1.422296e+01	2.597590e+01	4.055332e-01
1.354073793031684e-03	1.424294e+01	2.937744e+01	5.429917e-01
1.614073793031684e-03	1.425955e+01	3.284249e+01	6.828057e-01
1.894073793031685e-03	1.427379e+01	3.639771e+01	8.260354e-01
2.194073793031686e-03	1.428618e+01	3.997535e+01	9.699963e-01
2.554073793031687e-03	1.429846e+01	4.391056e+01	1.128248e+00
2.954073793031688e-03	1.430940e+01	4.776912e+01	1.283458e+00
3.354073793031689e-03	1.431799e+01	5.102930e+01	1.414801e+00
3.774073793031690e-03	1.432492e+01	5.375324e+01	1.524929e+00
4.194073793031691e-03	1.432956e+01	5.571499e+01	1.604828e+00
4.614073793031692e-03	1.433249e+01	5.688083e+01	1.653196e+00
5.034073793031693e-03	1.433329e+01	5.723074e+01	1.669239e+00
5.454073793031694e-03	1.433246e+01	5.675874e+01	1.652725e+00
5.874073793031695e-03	1.432951e+01	5.547307e+01	1.603960e+00
6.034073793031696e-03	1.432793e+01	5.477347e+01	1.577065e+00
6.254073793031696e-03	1.432540e+01	5.362705e+01	1.532769e+00
6.614073793031697e-03	1.431986e+01	5.130406e+01	1.442549e+00
7.034073793031699e-03	1.431125e+01	4.792822e+01	1.310871e+00
7.434073793031700e-03	1.430087e+01	4.409761e+01	1.161034e+00
7.834073793031700e-03	1.428780e+01	3.972720e+01	9.897794e-01
8.234073793031683e-03	1.427122e+01	3.488485e+01	7.998394e-01
8.614073793031668e-03	1.425079e+01	2.991516e+01	6.048707e-01
8.994073793031652e-03	1.422163e+01	2.465316e+01	3.986908e-01
9.314073793031639e-03	1.418173e+01	2.003979e+01	2.188506e-01
9.454073793031634e-03	1.415228e+01	1.797082e+01	1.392340e-01
9.514073793031631e-03	1.413250e+01	1.706833e+01	1.052345e-01
9.554073793031630e-03	1.411187e+01	1.645009e+01	8.292748e-02
9.574073793031629e-03	1.410115e+01	1.612360e+01	7.234383e-02
9.594073793031628e-03	1.409115e+01	1.577802e+01	6.244416e-02
9.614073793031627e-03	1.409021e+01	1.541928e+01	5.316754e-02
9.634073793031626e-03	1.406904e+01	1.505626e+01	4.363747e-02
9.654073793031626e-03	1.405813e+01	1.469044e+01	3.444263e-02
9.674073793031625e-03	1.402569e+01	1.432053e+01	2.507528e-02
9.694073793031624e-03	1.399156e+01	1.394111e+01	1.614404e-02
9.714073793031623e-03	1.391973e+01	1.355128e+01	7.682665e-03
9.714112855531623e-03	1.392096e+01	1.355059e+01	7.640908e-03
9.714190980531624e-03	1.392231e+01	1.354897e+01	7.617813e-03
9.714347230531623e-03	1.392167e+01	1.354521e+01	7.587255e-03
9.716693025047060e-03	1.390696e+01	1.349544e+01	6.697826e-03
9.718986672923627e-03	1.388977e+01	1.344525e+01	5.880130e-03
9.723619415531713e-03	1.384899e+01	1.334108e+01	4.382453e-03
9.724528352630732e-03	1.383868e+01	1.331937e+01	4.124142e-03
9.725497885536350e-03	1.382667e+01	1.329566e+01	3.863747e-03
9.727494824999277e-03	1.379983e+01	1.324585e+01	3.383637e-03
9.728539505445045e-03	1.378391e+01	1.321879e+01	3.164158e-03
9.728580597115165e-03	1.378430e+01	1.321838e+01	3.148055e-03
9.728640324239670e-03	1.378908e+01	1.322035e+01	3.039571e-03
9.728704117141882e-03	1.379987e+01	1.322556e+01	2.747516e-03
9.728772985945855e-03	1.381392e+01	1.323215e+01	2.430489e-03
9.728790203146848e-03	1.381656e+01	1.323321e+01	2.385794e-03
9.728824637548834e-03	1.381974e+01	1.323401e+01	2.313553e-03
9.728878242007920e-03	1.382264e+01	1.323415e+01	2.250668e-03
9.728936044939926e-03	1.382387e+01	1.323338e+01	2.218558e-03
9.728979201612907e-03	1.382395e+01	1.323244e+01	2.205665e-03
9.729017328419538e-03	1.382364e+01	1.323144e+01	2.198157e-03
9.729058332831582e-03	1.382308e+01	1.323030e+01	2.192592e-03
9.729099116982276e-03	1.382236e+01	1.322910e+01	2.188765e-03
9.729135929482189e-03	1.382162e+01	1.322800e+01	2.186306e-03
9.729176409942761e-03	1.382072e+01	1.322676e+01	2.184351e-03
9.729214217352178e-03	1.381984e+01	1.322558e+01	2.183032e-03
9.729261338142028e-03	1.381869e+01	1.322411e+01	2.181853e-03
9.729368109639088e-03	1.381597e+01	1.322073e+01	2.180219e-03
9.729595054183630e-03	1.380999e+01	1.321351e+01	2.178385e-03
9.741769804943031e-03	1.348501e+01	1.282453e+01	2.110781e-03
9.747018296574862e-03	1.334432e+01	1.265641e+01	2.081791e-03
9.757515279838522e-03	1.306206e+01	1.231955e+01	2.024834e-03
9.801004303388473e-03	1.188050e+01	1.091520e+01	1.790612e-03
9.881004303388469e-03	9.658474e+00	8.297050e+00	1.353885e-03
9.981004303388465e-03	6.796367e+00	4.964428e+00	7.980337e-04
1.008100430338846e-02	3.847201e+00	1.571243e+00	2.321614e-04
1.012100430338846e-02	2.644836e+00	1.984725e-01	3.243558e-06
1.016100430338846e-02	1.430207e+00	-1.182536e+00	-2.270443e-04
1.020350430338846e-02	1.274173e-01	-2.657990e+00	-4.732099e-04
1.020850430338846e-02	-2.685091e-02	-2.832232e+00	-5.024503e-04
1.023029253479243e-02	-7.011572e-01	-3.592848e+00	-6.294107e-04
1.029029253479243e-02	-2.574098e+00	-5.697757e+00	-9.803368e-04
1.039029253479243e-02	-5.746093e+00	-9.237661e+00	-1.570428e-03
1.049029253479242e-02	-8.975718e+00	-1.281230e+01	-2.166221e-03
1.059029253479242e-02	-1.225620e+01	-1.641566e+01	-2.766710e-03
1.061904253479242e-02	-1.320741e+01	-1.745591e+01	-2.940217e-03
1.062654253479242e-02	-1.345622e+01	-1.772762e+01	-2.986859e-03
1.064679474943324e-02	-1.412916e+01	-1.846182e+01	-3.114829e-03
1.072679474943323e-02	-1.680247e+01	-2.136909e+01	-3.624794e-03
1.078679474943323e-02	-1.882231e+01	-2.355587e+01	-4.008953e-03
1.082679474943323e-02	-2.017527e+01	-2.501610e+01	-4.265573e-03
1.086679474943323e-02	-2.153288e+01	-2.647781e+01	-4.522507e-03
1.088679474943323e-02	-2.221330e+01	-2.720911e+01	-4.651072e-03
1.090679474943323e-02	-2.289474e+01	-2.794065e+01	-4.779682e-03
1.092679474943323e-02	-2.357715e+01	-2.867238e+01	-4.908341e-03
1.096679474943322e-02	-2.494467e+01	-3.013624e+01	-5.165750e-03
1.102679474943322e-02	-2.700200e+01	-3.233238e+01	-5.551981e-03
1.110679474943322e-02	-2.975438e+01	-3.525943e+01	-6.066852e-03
1.114679474943322e-02	-3.113369e+01	-3.672169e+01	-6.324104e-03
1.116679474943322e-02	-3.182389e+01	-3.745234e+01	-6.452659e-03
1.118239831888253e-02	-3.236233e+01	-3.802206e+01	-6.558247e-03
1.118343988938521e-02	-3.239817e+01	-3.806002e+01	-6.567822e-03
1.118552303039056e-02	-3.246941e+01	-3.813568e+01	-6.591586e-03
1.118838883580542e-02	-3.256623e+01	-3.823911e+01	-6.642963e-03
1.119176763387451e-02	-3.267755e+01	-3.835954e+01	-6.754952e-03
1.119491105602528e-02	-3.277644e+01	-3.846908e+01	-6.942135e-03
1.119838288223216e-02	-3.287991e+01	-3.858728e+01	-7.289611e-03
1.119961215761492e-02	-3.291354e+01	-3.862748e+01	-7.457816e-03
1.119964517894095e-02	-3.291436e+01	-3.862850e+01	-7.462849e-03
1.119967557165854e-02	-3.291397e+01	-3.862871e+01	-7.475831e-03
1.119971524982497e-02	-3.291099e+01	-3.862754e+01	-7.583024e-03
1.119971770593001e-02	-3.291057e+01	-3.862732e+01	-7.596121e-03
1.119972261814009e-02	-3.290913e+01	-3.862650e+01	-7.626168e-03
1.119973244256026e-02	-3.290377e+01	-3.862328e+01	-7.716049e-03
1.119975209140060e-02	-3.288071e+01	-3.860915e+01	-8.125746e-03
1.119976998320085e-02	-3.283482e+01	-3.858089e+01	-9.034536e-03
1.119978524606548e-02	-3.275471e+01	-3.853145e+01	-1.065099e-02
1.119979931385005e-02	-3.261678e+01	-3.844622e+01	-1.341883e-02
1.119981314388740e-02	-3.237343e+01	-3.829568e+01	-1.819316e-02
1.119982844318256e-02	-3.191267e+01	-3.801146e+01	-2.745496e-02
1.119984243207334e-02	-3.121163e+01	-3.757987e+01	-4.163038e-02
1.119985744642638e-02	-3.002315e+01	-3.685061e+01	-6.594931e-02
1.119987212938867e-02	-2.830611e+01	-3.580210e+01	-1.016379e-01
1.119988819479213e-02	-2.578615e+01	-3.427516e+01	-1.551283e-01
1.119990542483827e-02	-2.262999e+01	-3.238435e+01	-2.231175e-01
1.119991800264173e-02	-2.029366e+01	-3.099001e+01	-2.717446e-01
1.119992497665512e-02	-1.916386e+01	-3.029601e+01	-2.959589e-01
1.119993521065890e-02	-1.782673e+01	-2.944108e+01	-3.256176e-01
1.119994190095354e-02	-1.714128e+01	-2.900078e+01	-3.403920e-01
1.119995061140301e-02	-1.651119e+01	-2.859780e+01	-3.550293e-01
1.119996803230196e-02	-1.571206e+01	-2.808628e+01	-3.738143e-01
1.119999549742793e-02	-1.500496e+01	-2.763261e+01	-3.884957e-01
1.120002255421892e-02	-1.466026e+01	-2.741117e+01	-3.953144e-01
1.120006154080169e-02	-1.444486e+01	-2.727346e+01	-3.998262e-01
1.120011602801458e-02	-1.432330e+01	-2.719590e+01	-4.022245e-01
1.120019692241428e-02	-1.426235e+01	-2.715786e+01	-4.033878e-01
1.120117851560907e-02	-1.422280e+01	-2.714602e+01	-4.046284e-01
1.134705749537321e-02	-1.423625e+01	-2.917106e+01	-4.927199e-01
1.150705749537320e-02	-1.424849e+01	-3.133985e+01	-5.862268e-01
1.166705749537320e-02	-1.425884e+01	-3.344970e+01	-6.764364e-01
1.184705749537319e-02	-1.426871e+01	-3.574740e+01	-7.739149e-01
1.202705749537318e-02	-1.427750e+01	-3.795867e+01	-8.670648e-01
1.220705749537317e-02	-1.428500e+01	-4.007720e+01	-9.557728e-01
1.238705749537317e-02	-1.429189e+01	-4.209680e+01	-1.039921e+00
1.258705749537316e-02	-1.429856e+01	-4.421749e+01	-1.127906e+00
1.278705749537315e-02	-1.430445e+01	-4.620082e+01	-1.209904e+00
1.300705749537314e-02	-1.431004e+01	-4.821497e+01	-1.292956e+00
1.322705749537313e-02	-1.431513e+01	-5.004476e+01	-1.368278e+00
1.346705749537312e-02	-1.431978e+01	-5.182080e+01	-1.441340e+00
1.372705749537311e-02	-1.432386e+01	-5.347475e+01	-1.509436e+00
1.400705749537310e-02	-1.432747e+01	-5.492992e+01	-1.569543e+00
1.430705749537309e-02	-1.433047e+01	-5.610186e+01	-1.618340e+00
1.462705749537307e-02	-1.433243e+01	-5.689947e+01	-1.652240e+00
1.496705749537306e-02	-1.433319e+01	-5.722681e+01	-1.667468e+00
1.514705749537305e-02	-1.433327e+01	-5.718179e+01	-1.666825e+00
1.548705749537304e-02	-1.433214e+01	-5.668507e+01	-1.649210e+00
1.576705749537303e-02	-1.433037e+01	-5.587543e+01	-1.618766e+00
1.596705749537302e-02	-1.432859e+01	-5.507917e+01	-1.588352e+00
1.608705749537302e-02	-1.432731e+01	-5.451566e+01	-1.566694e+00
1.610705749537301e-02	-1.432720e+01	-5.441557e+01	-1.562840e+00
1.618705749537301e-02	-1.432624e+01	-5.399765e+01	-1.546723e+00
1.634705749537300e-02	-1.432409e+01	-5.307861e+01	-1.511179e+00
1.660705749537299e-02	-1.431984e+01	-5.135384e+01	-1.444226e+00
1.692705749537298e-02	-1.431362e+01	-4.885318e+01	-1.346805e+00
1.730705749537297e-02	-1.430454e+01	-4.537516e+01	-1.210912e+00
1.770705749537295e-02	-1.429240e+01	-4.116927e+01	-1.046225e+00
1.810705749537293e-02	-1.427706e+01	-3.646907e+01	-8.619334e-01
1.850705749537292e-02	-1.425719e+01	-3.134708e+01	-6.609977e-01
1.888705749537290e-02	-1.423109e+01	-2.616074e+01	-4.576769e-01
1.924705749537289e-02	-1.419233e+01	-2.101843e+01	-2.568265e-01
1.942705749537288e-02	-1.415905e+01	-1.837313e+01	-1.545748e-01
1.950705749537288e-02	-1.413559e+01	-1.717476e+01	-1.091755e-01
1.952705749537288e-02	-1.412759e+01	-1.687027e+01	-9.792985e-02
1.954705749537287e-02	-1.411771e+01	-1.656081e+01	-8.678433e-02
1.956705749537287e-02	-1.410345e+01	-1.624009e+01	-7.595060e-02
1.958705749537287e-02	-1.409508e+01	-1.590097e+01	-6.583983e-02
1.962705749537287e-02	-1.407783e+01	-1.518378e+01	-4.697011e-02
1.966705749537287e-02	-1.403914e+01	-1.445077e+01	-2.832506e-02
1.968705749537287e-02	-1.400544e+01	-1.407596e+01	-1.925897e-02
1.970705749537287e-02	-1.393528e+01	-1.367953e+01	-1.043824e-02
1.972705749537287e-02	-1.379517e+01	-1.325115e+01	-3.699452e-03
1.972706813099787e-02	-1.379635e+01	-1.325169e+01	-3.629462e-03
1.972708940224786e-02	-1.379992e+01	-1.325352e+01	-3.529204e-03
1.972712618829562e-02	-1.380268e+01	-1.325442e+01	-3.465656e-03
1.972716496957961e-02	-1.380333e+01	-1.325394e+01	-3.448905e-03
1.972723019983968e-02	-1.380293e+01	-1.325234e+01	-3.434305e-03
1.972734717496733e-02	-1.380151e+01	-1.324932e+01	-3.409942e-03
1.972763844424322e-02	-1.379727e+01	-1.324181e+01	-3.346371e-03
1.972846404133398e-02	-1.378453e+01	-1.322033e+01	-3.174945e-03
1.972850009158750e-02	-1.378415e+01	-1.321950e+01	-3.166324e-03
1.972854869284943e-02	-1.378510e+01	-1.321933e+01	-3.140526e-03
1.972860669418587e-02	-1.379092e+01	-1.322192e+01	-3.001032e-03
1.972867393336566e-02	-1.380317e+01	-1.322783e+01	-2.671938e-03
1.972874265976635e-02	-1.381599e+01	-1.323356e+01	-2.386367e-03
1.972877865222390e-02	-1.382031e+01	-1.323504e+01	-2.312623e-03
1.972882104670739e-02	-1.382279e+01	-1.323524e+01	-2.260967e-03
1.972886897064346e-02	-1.382409e+01	-1.323471e+01	-2.228504e-03
1.972891922643289e-02	-1.382443e+01	-1.323371e+01	-2.209667e-03
1.972896154357677e-02	-1.382421e+01	-1.323265e+01	-2.200146e-03
1.972900237921713e-02	-1.382371e+01	-1.323153e+01	-2.194020e-03
1.972904311694175e-02	-1.382303e+01	-1.323035e+01	-2.189812e-03
1.972908119795808e-02	-1.382228e+01	-1.322922e+01	-2.187032e-03
1.972911723686119e-02	-1.382150e+01	-1.322812e+01	-2.185117e-03
1.972915592819902e-02	-1.382061e+01	-1.322692e+01	-2.183607e-03
1.972919916508474e-02	-1.381957e+01	-1.322557e+01	-2.182393e-03
1.972930150739197e-02	-1.381699e+01	-1.322234e+01	-2.180637e-03
1.972951688496182e-02	-1.381133e+01	-1.321549e+01	-2.178759e-03
1.974044983093883e-02	-1.351960e+01	-1.286626e+01	-2.118000e-03
1.974432972174493e-02	-1.341571e+01	-1.274205e+01	-2.096536e-03
1.975208950335714e-02	-1.320729e+01	-1.249321e+01	-2.053945e-03
1.976760906658155e-02	-1.278848e+01	-1.199409e+01	-1.970591e-03
1.984678903397710e-02	-1.061571e+01	-9.421749e+00	-1.541489e-03
1.994678903397709e-02	-7.785176e+00	-6.111392e+00	-9.893322e-04
1.998678903397709e-02	-6.627725e+00	-4.769494e+00	-7.654942e-04
2.000000000000000e-02	-6.242848e+00	-4.324486e+00	-6.912054e-04 Step Information: A=500m  (Step: 2/3)
0.000000000000000e+00	9.977553e-23	3.670509e-23	-7.341034e-25
6.399999641359955e-09	7.816842e-06	1.724675e-04	1.966234e-06
1.279999928271991e-08	2.859782e-05	3.501857e-04	3.616256e-06
2.559999856543982e-08	9.778565e-05	7.167695e-04	6.179248e-06
5.119999713087964e-08	2.938853e-04	1.473022e-03	9.356718e-06
7.567377756953674e-08	5.285287e-04	2.214155e-03	1.093117e-05
1.092359145972656e-07	8.967969e-04	3.247168e-03	1.208908e-05
1.445550348077061e-07	1.311054e-03	4.342734e-03	1.274738e-05
2.077619122465934e-07	2.082961e-03	6.311253e-03	1.346650e-05
5.117359876097740e-07	5.930263e-03	1.580040e-02	1.541897e-05
1.702127682867824e-06	2.118316e-02	5.299180e-02	2.167986e-05
2.775956984618625e-06	3.497270e-02	8.655310e-02	2.730854e-05
4.923615588120228e-06	6.263022e-02	1.537076e-01	3.856654e-05
9.218932795123433e-06	1.182584e-01	2.881438e-01	6.107910e-05
1.780956720912984e-05	2.307590e-01	5.575207e-01	1.061009e-04
3.499083603714266e-05	4.595971e-01	1.097824e+00	1.963330e-04
5.499083603714266e-05	7.317897e-01	1.729106e+00	3.017957e-04
7.499083603714266e-05	1.010730e+00	2.363085e+00	4.077180e-04
9.499083603714266e-05	1.296577e+00	2.999804e+00	5.140908e-04
1.149908360371427e-04	1.589239e+00	3.639204e+00	6.209044e-04
1.349908360371427e-04	1.888625e+00	4.281229e+00	7.281498e-04
1.549908360371427e-04	2.194644e+00	4.925820e+00	8.358172e-04
1.749908360371426e-04	2.507206e+00	5.572922e+00	9.438976e-04
