time	V(d)	V(g)	Id(J1)
Step Information: Vgs=-2 Rd=1.5K  (Step: 1/9)
0.000000000000000e+00	-7.707693e-10	-2.000000e+00	5.138458e-13
3.931071996293029e-03	1.617553e-02	-2.000000e+00	4.163061e-05
1.073107199629302e-02	4.466057e-02	-2.000000e+00	1.133073e-04
2.003107199629297e-02	8.472745e-02	-2.000000e+00	2.105960e-04
3.143107199629290e-02	1.357750e-01	-2.000000e+00	3.285643e-04
4.433107199629327e-02	1.964715e-01	-2.000000e+00	4.601000e-04
5.823107199629367e-02	2.659889e-01	-2.000000e+00	5.990883e-04
7.243107199629407e-02	3.424012e-01	-2.000000e+00	7.374802e-04
8.643107199629448e-02	4.245211e-01	-2.000000e+00	8.694003e-04
9.973107199629486e-02	5.107970e-01	-2.000000e+00	9.892163e-04
1.006310719962949e-01	5.169961e-01	-2.000000e+00	9.970836e-04
1.126310719962952e-01	6.052229e-01	-2.000000e+00	1.098266e-03
1.232310719962955e-01	6.944776e-01	-2.000000e+00	1.180096e-03
1.321310719962948e-01	7.821246e-01	-2.000000e+00	1.240331e-03
1.392310719962940e-01	8.658040e-01	-2.000000e+00	1.279212e-03
1.447310719962934e-01	9.456372e-01	-2.000000e+00	1.299323e-03
1.491310719962929e-01	1.027220e+00	-2.000000e+00	1.303601e-03
2.030310719962870e-01	2.100521e+00	-2.000000e+00	1.306733e-03
3.054310719962757e-01	4.139594e+00	-2.000000e+00	1.312685e-03
4.078310719962644e-01	6.178668e+00	-2.000000e+00	1.318636e-03
5.102310719962532e-01	8.217741e+00	-2.000000e+00	1.324587e-03
6.126310719962419e-01	1.025681e+01	-2.000000e+00	1.330538e-03
7.150310719962306e-01	1.229589e+01	-2.000000e+00	1.336489e-03
8.174310719962193e-01	1.433496e+01	-2.000000e+00	1.342439e-03
9.198310719962081e-01	1.637404e+01	-2.000000e+00	1.348390e-03
9.999310719961992e-01	1.796906e+01	-2.000000e+00	1.353044e-03
1.000000000000000e+00	1.797043e+01	-2.000000e+00	1.353048e-03
Step Information: Vgs=-1 Rd=1.5K  (Step: 2/9)
0.000000000000000e+00	-2.484333e-10	-1.000000e+00	1.656220e-13
1.083107199629302e-02	2.491071e-02	-1.000000e+00	1.278072e-04
3.103107199629290e-02	7.211287e-02	-1.000000e+00	3.656724e-04
5.963107199629371e-02	1.407078e-01	-1.000000e+00	7.012758e-04
9.523107199629473e-02	2.292674e-01	-1.000000e+00	1.116903e-03
1.005310719962949e-01	2.427785e-01	-1.000000e+00	1.178562e-03
1.420310719962937e-01	3.518200e-01	-1.000000e+00	1.659201e-03
1.867310719962888e-01	4.765833e-01	-1.000000e+00	2.172025e-03
2.029310719962870e-01	5.239756e-01	-1.000000e+00	2.356431e-03
2.488310719962819e-01	6.657631e-01	-1.000000e+00	2.873905e-03
2.935310719962770e-01	8.169606e-01	-1.000000e+00	3.369107e-03
3.053310719962757e-01	8.595546e-01	-1.000000e+00	3.498045e-03
3.462310719962712e-01	1.018283e+00	-1.000000e+00	3.937559e-03
3.827310719962672e-01	1.179160e+00	-1.000000e+00	4.316974e-03
4.077310719962645e-01	1.304640e+00	-1.000000e+00	4.566654e-03
4.346310719962615e-01	1.461073e+00	-1.000000e+00	4.821033e-03
4.559310719962592e-01	1.610779e+00	-1.000000e+00	5.005228e-03
4.719310719962574e-01	1.750997e+00	-1.000000e+00	5.125083e-03
4.831310719962562e-01	1.878160e+00	-1.000000e+00	5.189641e-03
4.904310719962554e-01	1.991056e+00	-1.000000e+00	5.211710e-03
5.101310719962532e-01	2.377922e+00	-1.000000e+00	5.216467e-03
6.125310719962419e-01	4.390856e+00	-1.000000e+00	5.239844e-03
7.149310719962306e-01	6.403791e+00	-1.000000e+00	5.263220e-03
8.173310719962193e-01	8.416728e+00	-1.000000e+00	5.286595e-03
9.197310719962081e-01	1.042967e+01	-1.000000e+00	5.309970e-03
9.999310719961992e-01	1.200621e+01	-1.000000e+00	5.328275e-03
1.000000000000000e+00	1.200756e+01	-1.000000e+00	5.328291e-03
Step Information: Vgs=0 Rd=1.5K  (Step: 3/9)
0.000000000000000e+00	0.000000e+00	0.000000e+00	0.000000e+00
2.063107199629296e-02	3.302720e-02	0.000000e+00	2.530628e-04
6.103107199629375e-02	9.867209e-02	0.000000e+00	7.479662e-04
1.005310719962949e-01	1.641618e-01	0.000000e+00	1.230973e-03
1.696310719962907e-01	2.820911e-01	0.000000e+00	2.073687e-03
2.029310719962870e-01	3.405758e-01	0.000000e+00	2.478697e-03
2.887310719962776e-01	4.968071e-01	0.000000e+00	3.518543e-03
3.053310719962757e-01	5.280374e-01	0.000000e+00	3.719056e-03
3.990310719962654e-01	7.112946e-01	0.000000e+00	4.846218e-03
4.077310719962645e-01	7.289657e-01	0.000000e+00	4.950437e-03
5.036310719962539e-01	9.323974e-01	0.000000e+00	6.093482e-03
5.101310719962532e-01	9.468170e-01	0.000000e+00	6.170536e-03
6.037310719962429e-01	1.165159e+00	0.000000e+00	7.272975e-03
6.125310719962419e-01	1.186841e+00	0.000000e+00	7.375854e-03
6.998310719962323e-01	1.415347e+00	0.000000e+00	8.387516e-03
7.149310719962306e-01	1.457738e+00	0.000000e+00	8.560590e-03
7.917310719962222e-01	1.690536e+00	0.000000e+00	9.429391e-03
8.173310719962193e-01	1.776035e+00	0.000000e+00	9.713724e-03
8.792310719962125e-01	2.006043e+00	0.000000e+00	1.038572e-02
9.197310719962081e-01	2.182102e+00	0.000000e+00	1.080835e-02
9.607310719962036e-01	2.395113e+00	0.000000e+00	1.121301e-02
9.909310719962002e-01	2.592870e+00	0.000000e+00	1.148383e-02
9.999310719961992e-01	2.663945e+00	0.000000e+00	1.155645e-02
1.000000000000000e+00	2.664521e+00	0.000000e+00	1.155699e-02
Step Information: Vgs=-2 Rd=3.3K  (Step: 4/9)
0.000000000000000e+00	-8.675010e-10	-2.000000e+00	2.628788e-13
7.131071996293037e-03	1.501583e-02	-2.000000e+00	3.866836e-05
1.913107199629297e-02	4.075239e-02	-2.000000e+00	1.035967e-04
3.553107199629302e-02	7.694536e-02	-2.000000e+00	1.920231e-04
5.543107199629359e-02	1.226134e-01	-2.000000e+00	2.987903e-04
7.803107199629424e-02	1.771401e-01	-2.000000e+00	4.192368e-04
1.005310719962949e-01	2.347369e-01	-2.000000e+00	5.381468e-04
1.253310719962955e-01	3.028878e-01	-2.000000e+00	6.677981e-04
1.497310719962928e-01	3.759798e-01	-2.000000e+00	7.935278e-04
1.729310719962903e-01	4.528352e-01	-2.000000e+00	9.108443e-04
1.941310719962880e-01	5.317550e-01	-2.000000e+00	1.015414e-03
2.029310719962870e-01	5.678100e-01	-2.000000e+00	1.057822e-03
2.202310719962851e-01	6.466196e-01	-2.000000e+00	1.138788e-03
2.345310719962835e-01	7.234095e-01	-2.000000e+00	1.202185e-03
2.459310719962823e-01	7.974806e-01	-2.000000e+00	1.248831e-03
2.544310719962813e-01	8.664566e-01	-2.000000e+00	1.279444e-03
2.603310719962807e-01	9.284906e-01	-2.000000e+00	1.296403e-03
2.641310719962803e-01	9.826679e-01	-2.000000e+00	1.303016e-03
3.053310719962757e-01	1.797321e+00	-2.000000e+00	1.305848e-03
4.077310719962645e-01	3.825784e+00	-2.000000e+00	1.311769e-03
5.101310719962532e-01	5.854247e+00	-2.000000e+00	1.317689e-03
6.125310719962419e-01	7.882711e+00	-2.000000e+00	1.323609e-03
7.149310719962306e-01	9.911175e+00	-2.000000e+00	1.329529e-03
8.173310719962193e-01	1.193964e+01	-2.000000e+00	1.335449e-03
9.197310719962081e-01	1.396810e+01	-2.000000e+00	1.341369e-03
9.999310719961992e-01	1.555680e+01	-2.000000e+00	1.346005e-03
1.000000000000000e+00	1.555817e+01	-2.000000e+00	1.346009e-03
Step Information: Vgs=-1 Rd=3.3K  (Step: 5/9)
0.000000000000000e+00	-2.649633e-10	-1.000000e+00	8.029213e-14
2.133107199629296e-02	2.378614e-02	-1.000000e+00	1.220713e-04
6.083107199629374e-02	6.854724e-02	-1.000000e+00	3.479013e-04
1.005310719962949e-01	1.145233e-01	-1.000000e+00	5.745752e-04
1.665310719962910e-01	1.933406e-01	-1.000000e+00	9.506912e-04
2.029310719962870e-01	2.381968e-01	-1.000000e+00	1.157704e-03
2.842310719962781e-01	3.423962e-01	-1.000000e+00	1.618856e-03
3.053310719962757e-01	3.704365e-01	-1.000000e+00	1.738238e-03
3.931310719962661e-01	4.922090e-01	-1.000000e+00	2.233458e-03
4.077310719962645e-01	5.133386e-01	-1.000000e+00	2.315540e-03
4.965310719962547e-01	6.482688e-01	-1.000000e+00	2.812834e-03
5.101310719962532e-01	6.700251e-01	-1.000000e+00	2.888666e-03
5.952310719962438e-01	8.142423e-01	-1.000000e+00	3.360721e-03
6.125310719962419e-01	8.455254e-01	-1.000000e+00	3.456090e-03
6.896310719962334e-01	9.953182e-01	-1.000000e+00	3.877971e-03
7.149310719962306e-01	1.048962e+00	-1.000000e+00	4.015048e-03
7.794310719962235e-01	1.199558e+00	-1.000000e+00	4.360322e-03
8.173310719962193e-01	1.300671e+00	-1.000000e+00	4.559379e-03
8.638310719962142e-01	1.444802e+00	-1.000000e+00	4.797521e-03
8.996310719962103e-01	1.581005e+00	-1.000000e+00	4.973217e-03
9.197310719962081e-01	1.675085e+00	-1.000000e+00	5.066526e-03
9.393310719962059e-01	1.791306e+00	-1.000000e+00	5.150096e-03
9.517310719962045e-01	1.892991e+00	-1.000000e+00	5.194433e-03
9.587310719962038e-01	1.978629e+00	-1.000000e+00	5.210907e-03
9.999310719961992e-01	2.769283e+00	-1.000000e+00	5.221012e-03
1.000000000000000e+00	2.770611e+00	-1.000000e+00	5.221027e-03
Step Information: Vgs=0 Rd=3.3K  (Step: 6/9)
0.000000000000000e+00	0.000000e+00	0.000000e+00	0.000000e+00
4.193107199629320e-02	3.189877e-02	0.000000e+00	2.444614e-04
1.005310719962949e-01	7.702276e-02	0.000000e+00	5.859390e-04
2.029310719962870e-01	1.574774e-01	0.000000e+00	1.182165e-03
3.053310719962757e-01	2.401164e-01	0.000000e+00	1.777729e-03
4.077310719962645e-01	3.251309e-01	0.000000e+00	2.372573e-03
5.101310719962532e-01	4.127415e-01	0.000000e+00	2.966630e-03
6.125310719962419e-01	5.032055e-01	0.000000e+00	3.559823e-03
7.149310719962306e-01	5.968255e-01	0.000000e+00	4.152060e-03
8.173310719962193e-01	6.939620e-01	0.000000e+00	4.743230e-03
9.197310719962081e-01	7.950494e-01	0.000000e+00	5.333204e-03
9.999310719961992e-01	8.773209e-01	0.000000e+00	5.794333e-03
1.000000000000000e+00	8.773929e-01	0.000000e+00	5.794730e-03
Step Information: Vgs=-2 Rd=10K  (Step: 7/9)
0.000000000000000e+00	-9.328679e-10	-2.000000e+00	9.328639e-14
1.913107199629297e-02	1.429774e-02	-2.000000e+00	3.683237e-05
5.123107199629347e-02	3.874268e-02	-2.000000e+00	9.858788e-05
9.463107199629471e-02	7.276656e-02	-2.000000e+00	1.819855e-04
1.005310719962949e-01	7.748405e-02	-2.000000e+00	1.933137e-04
1.541310719962924e-01	1.214416e-01	-2.000000e+00	2.961180e-04
2.029310719962870e-01	1.633625e-01	-2.000000e+00	3.895259e-04
2.663310719962800e-01	2.209996e-01	-2.000000e+00	5.105622e-04
3.053310719962757e-01	2.585481e-01	-2.000000e+00	5.848073e-04
3.700310719962686e-01	3.251466e-01	-2.000000e+00	7.075475e-04
4.077310719962645e-01	3.669643e-01	-2.000000e+00	7.787657e-04
4.674310719962579e-01	4.390701e-01	-2.000000e+00	8.909552e-04
5.101310719962532e-01	4.964430e-01	-2.000000e+00	9.706179e-04
5.588310719962478e-01	5.703049e-01	-2.000000e+00	1.060632e-03
5.999310719962433e-01	6.431348e-01	-2.000000e+00	1.135549e-03
6.125310719962419e-01	6.682941e-01	-2.000000e+00	1.158233e-03
6.429310719962386e-01	7.374437e-01	-2.000000e+00	1.212118e-03
6.657310719962360e-01	8.020753e-01	-2.000000e+00	1.251255e-03
6.818310719962343e-01	8.611899e-01	-2.000000e+00	1.277543e-03
6.922310719962331e-01	9.131645e-01	-2.000000e+00	1.293146e-03
6.983310719962325e-01	9.575735e-01	-2.000000e+00	1.300905e-03
7.013310719962321e-01	9.926220e-01	-2.000000e+00	1.303400e-03
7.149310719962306e-01	1.255938e+00	-2.000000e+00	1.304268e-03
8.173310719962193e-01	3.245858e+00	-2.000000e+00	1.310076e-03
9.197310719962081e-01	5.235780e+00	-2.000000e+00	1.315884e-03
9.999310719961992e-01	6.794294e+00	-2.000000e+00	1.320433e-03
1.000000000000000e+00	6.795634e+00	-2.000000e+00	1.320437e-03
Step Information: Vgs=-1 Rd=10K  (Step: 8/9)
0.000000000000000e+00	-2.751864e-10	-1.000000e+00	2.751829e-14
6.063107199629374e-02	2.317342e-02	-1.000000e+00	1.189448e-04
1.005310719962949e-01	3.856701e-02	-1.000000e+00	1.972054e-04
2.029310719962870e-01	7.861590e-02	-1.000000e+00	3.980006e-04
3.053310719962757e-01	1.194843e-01	-1.000000e+00	5.987137e-04
4.077310719962645e-01	1.612252e-01	-1.000000e+00	7.993396e-04
5.101310719962532e-01	2.038977e-01	-1.000000e+00	9.998723e-04
6.125310719962419e-01	2.475675e-01	-1.000000e+00	1.200305e-03
7.149310719962306e-01	2.923088e-01	-1.000000e+00	1.400631e-03
8.173310719962193e-01	3.382053e-01	-1.000000e+00	1.600842e-03
9.197310719962081e-01	3.853524e-01	-1.000000e+00	1.800927e-03
9.999310719961992e-01	4.232214e-01	-1.000000e+00	1.957540e-03
1.000000000000000e+00	4.232544e-01	-1.000000e+00	1.957675e-03
Step Information: Vgs=0 Rd=10K  (Step: 9/9)
0.000000000000000e+00	0.000000e+00	0.000000e+00	0.000000e+00
1.005310719962949e-01	2.587279e-02	0.000000e+00	1.984749e-04
2.029310719962870e-01	5.245040e-02	0.000000e+00	4.006171e-04
3.053310719962757e-01	7.925987e-02	0.000000e+00	6.027361e-04
4.077310719962645e-01	1.063075e-01	0.000000e+00	8.048314e-04
5.101310719962532e-01	1.335997e-01	0.000000e+00	1.006902e-03
6.125310719962419e-01	1.611435e-01	0.000000e+00	1.208948e-03
7.149310719962306e-01	1.889461e-01	0.000000e+00	1.410968e-03
8.173310719962193e-01	2.170149e-01	0.000000e+00	1.612961e-03
9.197310719962081e-01	2.453578e-01	0.000000e+00	1.814926e-03
9.999310719961992e-01	2.677530e-01	0.000000e+00	1.973087e-03
1.000000000000000e+00	2.677723e-01	0.000000e+00	1.973223e-03
