time	V(d)	Id(J1)
Step Information: Vgs=-5  (Step: 1/6)
0.000000000000000e+00	0.000000e+00	5.650523e-12
1.006310719926526e-02	2.012621e-01	2.238314e-11
2.030310719926485e-02	4.060622e-01	2.240201e-11
3.054310719926443e-02	6.108621e-01	2.242897e-11
4.078310719926732e-02	8.156621e-01	2.246344e-11
5.102310719927046e-02	1.020462e+00	2.250489e-11
6.126310719927359e-02	1.225262e+00	2.255285e-11
7.150310719927049e-02	1.430062e+00	2.260688e-11
8.174310719926652e-02	1.634862e+00	2.266661e-11
9.198310719926255e-02	1.839662e+00	2.273166e-11
1.022231071992586e-01	2.044462e+00	2.280172e-11
1.124631071992546e-01	2.249262e+00	2.287649e-11
1.227031071992506e-01	2.454062e+00	2.295570e-11
1.329431071992577e-01	2.658862e+00	2.303908e-11
1.431831071992679e-01	2.863662e+00	2.312642e-11
1.534231071992782e-01	3.068462e+00	2.321750e-11
1.636631071992884e-01	3.273262e+00	2.331212e-11
1.739031071992987e-01	3.478062e+00	2.341009e-11
1.841431071993089e-01	3.682862e+00	2.351126e-11
1.943831071993191e-01	3.887662e+00	2.361545e-11
2.046231071993294e-01	4.092462e+00	2.372252e-11
2.148631071993396e-01	4.297262e+00	2.383233e-11
2.251031071993499e-01	4.502062e+00	2.394476e-11
2.353431071993601e-01	4.706862e+00	2.405969e-11
2.455831071993703e-01	4.911662e+00	2.417700e-11
2.558231071993806e-01	5.116462e+00	2.429659e-11
2.660631071993908e-01	5.321262e+00	2.441836e-11
2.763031071994010e-01	5.526062e+00	2.454222e-11
2.865431071994113e-01	5.730862e+00	2.466808e-11
2.967831071994215e-01	5.935662e+00	2.479585e-11
3.070231071994318e-01	6.140462e+00	2.492547e-11
3.172631071994420e-01	6.345262e+00	2.505685e-11
3.275031071994522e-01	6.550062e+00	2.518993e-11
3.377431071994625e-01	6.754862e+00	2.532464e-11
3.479831071994727e-01	6.959662e+00	2.546092e-11
3.582231071994830e-01	7.164462e+00	2.559871e-11
3.684631071994932e-01	7.369262e+00	2.573797e-11
3.787031071995035e-01	7.574062e+00	2.587862e-11
3.889431071995137e-01	7.778862e+00	2.602063e-11
3.991831071995239e-01	7.983662e+00	2.616395e-11
4.094231071995342e-01	8.188462e+00	2.630852e-11
4.196631071995444e-01	8.393262e+00	2.645432e-11
4.299031071995547e-01	8.598063e+00	2.660129e-11
4.401431071995649e-01	8.802862e+00	2.674940e-11
4.503831071995751e-01	9.007662e+00	2.689861e-11
4.606231071995854e-01	9.212462e+00	2.704889e-11
4.708631071995956e-01	9.417262e+00	2.720020e-11
4.811031071996059e-01	9.622062e+00	2.735251e-11
4.913431071996161e-01	9.826862e+00	2.750578e-11
5.015831071996175e-01	1.003166e+01	2.766000e-11
5.118231071995709e-01	1.023646e+01	2.781512e-11
5.220631071995243e-01	1.044126e+01	2.797113e-11
5.323031071994777e-01	1.064606e+01	2.812799e-11
5.425431071994311e-01	1.085086e+01	2.828569e-11
5.527831071993845e-01	1.105566e+01	2.844419e-11
5.630231071993379e-01	1.126046e+01	2.860348e-11
5.732631071992913e-01	1.146526e+01	2.876353e-11
5.835031071992447e-01	1.167006e+01	2.892433e-11
5.937431071991981e-01	1.187486e+01	2.908584e-11
6.039831071991515e-01	1.207966e+01	2.924806e-11
6.142231071991049e-01	1.228446e+01	2.941096e-11
6.244631071990583e-01	1.248926e+01	2.957452e-11
6.347031071990117e-01	1.269406e+01	2.973874e-11
6.449431071989651e-01	1.289886e+01	2.990358e-11
6.551831071989185e-01	1.310366e+01	3.006903e-11
6.654231071988719e-01	1.330846e+01	3.023509e-11
6.756631071988253e-01	1.351326e+01	3.040172e-11
6.859031071987787e-01	1.371806e+01	3.056893e-11
6.961431071987321e-01	1.392286e+01	3.073669e-11
7.063831071986855e-01	1.412766e+01	3.090499e-11
7.166231071986389e-01	1.433246e+01	3.107382e-11
7.268631071985923e-01	1.453726e+01	3.124317e-11
7.371031071985457e-01	1.474206e+01	3.141302e-11
7.473431071984991e-01	1.494686e+01	3.158336e-11
7.575831071984525e-01	1.515166e+01	3.175418e-11
7.678231071984059e-01	1.535646e+01	3.192547e-11
7.780631071983592e-01	1.556126e+01	3.209722e-11
7.883031071983126e-01	1.576606e+01	3.226942e-11
7.985431071982660e-01	1.597086e+01	3.244205e-11
8.087831071982194e-01	1.617566e+01	3.261511e-11
8.190231071981728e-01	1.638046e+01	3.278859e-11
8.292631071981262e-01	1.658526e+01	3.296249e-11
8.395031071980796e-01	1.679006e+01	3.313678e-11
8.497431071980330e-01	1.699486e+01	3.331146e-11
8.599831071979864e-01	1.719966e+01	3.348653e-11
8.702231071979398e-01	1.740446e+01	3.366198e-11
8.804631071978932e-01	1.760926e+01	3.383779e-11
8.907031071978466e-01	1.781406e+01	3.401396e-11
9.009431071978000e-01	1.801886e+01	3.419048e-11
9.111831071977534e-01	1.822366e+01	3.436736e-11
9.214231071977068e-01	1.842846e+01	3.454457e-11
9.316631071976602e-01	1.863326e+01	3.472211e-11
9.419031071976136e-01	1.883806e+01	3.489998e-11
9.521431071975670e-01	1.904286e+01	3.507816e-11
9.623831071975204e-01	1.924766e+01	3.525666e-11
9.726231071974738e-01	1.945246e+01	3.543547e-11
9.828631071974272e-01	1.965726e+01	3.561458e-11
9.931031071973806e-01	1.986206e+01	3.579398e-11
9.999931071973492e-01	1.999986e+01	3.591485e-11
1.000000000000000e+00	2.000000e+01	3.591492e-11
Step Information: Vgs=-4  (Step: 2/6)
0.000000000000000e+00	0.000000e+00	4.611104e-12
1.005310719926526e-02	2.010621e-01	2.243137e-11
2.029310719926485e-02	4.058622e-01	2.239978e-11
3.053310719926443e-02	6.106622e-01	2.238031e-11
4.077310719926732e-02	8.154622e-01	2.237193e-11
5.101310719927046e-02	1.020262e+00	2.237372e-11
6.125310719927359e-02	1.225062e+00	2.238490e-11
7.149310719927049e-02	1.429862e+00	2.240474e-11
8.173310719926652e-02	1.634662e+00	2.243260e-11
9.197310719926255e-02	1.839462e+00	2.246790e-11
1.022131071992586e-01	2.044262e+00	2.251013e-11
1.124531071992546e-01	2.249062e+00	2.255882e-11
1.226931071992506e-01	2.453862e+00	2.261354e-11
1.329331071992577e-01	2.658662e+00	2.267390e-11
1.431731071992679e-01	2.863462e+00	2.273955e-11
1.534131071992782e-01	3.068262e+00	2.281018e-11
1.636531071992884e-01	3.273062e+00	2.288547e-11
1.738931071992987e-01	3.477862e+00	2.296518e-11
1.841331071993089e-01	3.682662e+00	2.304903e-11
1.943731071993191e-01	3.887462e+00	2.313682e-11
2.046131071993294e-01	4.092262e+00	2.322832e-11
2.148531071993396e-01	4.297062e+00	2.332334e-11
2.250931071993499e-01	4.501862e+00	2.342169e-11
2.353331071993601e-01	4.706662e+00	2.352321e-11
2.455731071993703e-01	4.911462e+00	2.362774e-11
2.558131071993806e-01	5.116262e+00	2.373514e-11
2.660531071993908e-01	5.321062e+00	2.384527e-11
2.762931071994010e-01	5.525862e+00	2.395799e-11
2.865331071994113e-01	5.730662e+00	2.407320e-11
2.967731071994215e-01	5.935462e+00	2.419078e-11
3.070131071994318e-01	6.140262e+00	2.431063e-11
3.172531071994420e-01	6.345062e+00	2.443265e-11
3.274931071994522e-01	6.549862e+00	2.455675e-11
3.377331071994625e-01	6.754662e+00	2.468283e-11
3.479731071994727e-01	6.959462e+00	2.481082e-11
3.582131071994830e-01	7.164262e+00	2.494064e-11
3.684531071994932e-01	7.369062e+00	2.507223e-11
3.786931071995034e-01	7.573862e+00	2.520550e-11
3.889331071995137e-01	7.778662e+00	2.534040e-11
3.991731071995239e-01	7.983462e+00	2.547686e-11
4.094131071995342e-01	8.188262e+00	2.561482e-11
4.196531071995444e-01	8.393063e+00	2.575424e-11
4.298931071995546e-01	8.597862e+00	2.589506e-11
4.401331071995649e-01	8.802662e+00	2.603722e-11
4.503731071995751e-01	9.007463e+00	2.618068e-11
4.606131071995854e-01	9.212262e+00	2.632540e-11
4.708531071995956e-01	9.417062e+00	2.647134e-11
4.810931071996059e-01	9.621862e+00	2.661845e-11
4.913331071996161e-01	9.826662e+00	2.676669e-11
5.015731071996176e-01	1.003146e+01	2.691602e-11
5.118131071995710e-01	1.023626e+01	2.706642e-11
5.220531071995244e-01	1.044106e+01	2.721785e-11
5.322931071994778e-01	1.064586e+01	2.737027e-11
5.425331071994312e-01	1.085066e+01	2.752366e-11
5.527731071993846e-01	1.105546e+01	2.767798e-11
5.630131071993379e-01	1.126026e+01	2.783321e-11
5.732531071992913e-01	1.146506e+01	2.798932e-11
5.834931071992447e-01	1.166986e+01	2.814628e-11
5.937331071991981e-01	1.187466e+01	2.830407e-11
6.039731071991515e-01	1.207946e+01	2.846266e-11
6.142131071991049e-01	1.228426e+01	2.862204e-11
6.244531071990583e-01	1.248906e+01	2.878218e-11
6.346931071990117e-01	1.269386e+01	2.894306e-11
6.449331071989651e-01	1.289866e+01	2.910466e-11
6.551731071989185e-01	1.310346e+01	2.926696e-11
6.654131071988719e-01	1.330826e+01	2.942993e-11
6.756531071988253e-01	1.351306e+01	2.959357e-11
6.858931071987787e-01	1.371786e+01	2.975786e-11
6.961331071987321e-01	1.392266e+01	2.992277e-11
7.063731071986855e-01	1.412746e+01	3.008830e-11
7.166131071986389e-01	1.433226e+01	3.025442e-11
7.268531071985923e-01	1.453706e+01	3.042112e-11
7.370931071985457e-01	1.474186e+01	3.058840e-11
7.473331071984991e-01	1.494666e+01	3.075622e-11
7.575731071984525e-01	1.515146e+01	3.092459e-11
7.678131071984059e-01	1.535626e+01	3.109348e-11
7.780531071983593e-01	1.556106e+01	3.126288e-11
7.882931071983127e-01	1.576586e+01	3.143279e-11
7.985331071982661e-01	1.597066e+01	3.160319e-11
8.087731071982195e-01	1.617546e+01	3.177406e-11
8.190131071981729e-01	1.638026e+01	3.194541e-11
8.292531071981263e-01	1.658506e+01	3.211721e-11
8.394931071980797e-01	1.678986e+01	3.228946e-11
8.497331071980331e-01	1.699466e+01	3.246214e-11
8.599731071979865e-01	1.719946e+01	3.263525e-11
8.702131071979399e-01	1.740426e+01	3.280878e-11
8.804531071978933e-01	1.760906e+01	3.298272e-11
8.906931071978467e-01	1.781386e+01	3.315706e-11
9.009331071978001e-01	1.801866e+01	3.333179e-11
9.111731071977535e-01	1.822346e+01	3.350690e-11
9.214131071977069e-01	1.842826e+01	3.368239e-11
9.316531071976603e-01	1.863306e+01	3.385824e-11
9.418931071976137e-01	1.883786e+01	3.403446e-11
9.521331071975671e-01	1.904266e+01	3.421102e-11
9.623731071975204e-01	1.924746e+01	3.438793e-11
9.726131071974738e-01	1.945226e+01	3.456518e-11
9.828531071974272e-01	1.965706e+01	3.474276e-11
9.930931071973806e-01	1.986186e+01	3.492067e-11
9.999931071973492e-01	1.999986e+01	3.504072e-11
1.000000000000000e+00	2.000000e+01	3.504078e-11
Step Information: Vgs=-3  (Step: 3/6)
0.000000000000000e+00	0.000000e+00	3.566274e-12
1.005310719926526e-02	2.010621e-01	2.280384e-11
2.029310719926485e-02	4.058622e-01	2.269285e-11
3.053310719926443e-02	6.106622e-01	2.260155e-11
4.077310719926732e-02	8.154622e-01	2.252792e-11
5.101310719927046e-02	1.020262e+00	2.247024e-11
6.125310719927359e-02	1.225062e+00	2.242700e-11
7.149310719927049e-02	1.429862e+00	2.239689e-11
8.173310719926652e-02	1.634662e+00	2.237877e-11
9.197310719926255e-02	1.839462e+00	2.237163e-11
1.022131071992586e-01	2.044262e+00	2.237456e-11
1.124531071992546e-01	2.249062e+00	2.238679e-11
1.226931071992506e-01	2.453862e+00	2.240760e-11
1.329331071992577e-01	2.658662e+00	2.243636e-11
1.431731071992679e-01	2.863462e+00	2.247250e-11
1.534131071992782e-01	3.068262e+00	2.251551e-11
1.636531071992884e-01	3.273062e+00	2.256493e-11
1.738931071992987e-01	3.477862e+00	2.262033e-11
1.841331071993089e-01	3.682662e+00	2.268133e-11
1.943731071993191e-01	3.887462e+00	2.274758e-11
2.046131071993294e-01	4.092262e+00	2.281876e-11
2.148531071993396e-01	4.297062e+00	2.289459e-11
2.250931071993499e-01	4.501862e+00	2.297479e-11
2.353331071993601e-01	4.706662e+00	2.305912e-11
2.455731071993703e-01	4.911462e+00	2.314735e-11
2.558131071993806e-01	5.116262e+00	2.323928e-11
2.660531071993908e-01	5.321062e+00	2.333469e-11
2.762931071994010e-01	5.525862e+00	2.343343e-11
2.865331071994113e-01	5.730662e+00	2.353531e-11
2.967731071994215e-01	5.935462e+00	2.364018e-11
3.070131071994318e-01	6.140262e+00	2.374791e-11
3.172531071994420e-01	6.345062e+00	2.385834e-11
3.274931071994522e-01	6.549862e+00	2.397137e-11
3.377331071994625e-01	6.754662e+00	2.408686e-11
3.479731071994727e-01	6.959462e+00	2.420471e-11
3.582131071994830e-01	7.164262e+00	2.432482e-11
3.684531071994932e-01	7.369062e+00	2.444709e-11
3.786931071995034e-01	7.573862e+00	2.457142e-11
3.889331071995137e-01	7.778662e+00	2.469773e-11
3.991731071995239e-01	7.983462e+00	2.482594e-11
4.094131071995342e-01	8.188262e+00	2.495597e-11
4.196531071995444e-01	8.393063e+00	2.508776e-11
4.298931071995546e-01	8.597862e+00	2.522122e-11
4.401331071995649e-01	8.802662e+00	2.535631e-11
4.503731071995751e-01	9.007463e+00	2.549295e-11
4.606131071995854e-01	9.212262e+00	2.563109e-11
4.708531071995956e-01	9.417062e+00	2.577067e-11
4.810931071996059e-01	9.621862e+00	2.591165e-11
4.913331071996161e-01	9.826662e+00	2.605396e-11
5.015731071996176e-01	1.003146e+01	2.619758e-11
5.118131071995710e-01	1.023626e+01	2.634244e-11
5.220531071995244e-01	1.044106e+01	2.648852e-11
5.322931071994778e-01	1.064586e+01	2.663576e-11
5.425331071994312e-01	1.085066e+01	2.678413e-11
5.527731071993846e-01	1.105546e+01	2.693359e-11
5.630131071993379e-01	1.126026e+01	2.708411e-11
5.732531071992913e-01	1.146506e+01	2.723566e-11
5.834931071992447e-01	1.166986e+01	2.738820e-11
5.937331071991981e-01	1.187466e+01	2.754169e-11
6.039731071991515e-01	1.207946e+01	2.769612e-11
6.142131071991049e-01	1.228426e+01	2.785146e-11
6.244531071990583e-01	1.248906e+01	2.800767e-11
6.346931071990117e-01	1.269386e+01	2.816473e-11
6.449331071989651e-01	1.289866e+01	2.832261e-11
6.551731071989185e-01	1.310346e+01	2.848130e-11
6.654131071988719e-01	1.330826e+01	2.864077e-11
6.756531071988253e-01	1.351306e+01	2.880100e-11
6.858931071987787e-01	1.371786e+01	2.896196e-11
6.961331071987321e-01	1.392266e+01	2.912364e-11
7.063731071986855e-01	1.412746e+01	2.928602e-11
7.166131071986389e-01	1.433226e+01	2.944908e-11
7.268531071985923e-01	1.453706e+01	2.961279e-11
7.370931071985457e-01	1.474186e+01	2.977715e-11
7.473331071984991e-01	1.494666e+01	2.994214e-11
7.575731071984525e-01	1.515146e+01	3.010774e-11
7.678131071984059e-01	1.535626e+01	3.027393e-11
7.780531071983593e-01	1.556106e+01	3.044070e-11
7.882931071983127e-01	1.576586e+01	3.060803e-11
7.985331071982661e-01	1.597066e+01	3.077592e-11
8.087731071982195e-01	1.617546e+01	3.094435e-11
8.190131071981729e-01	1.638026e+01	3.111330e-11
8.292531071981263e-01	1.658506e+01	3.128277e-11
8.394931071980797e-01	1.678986e+01	3.145273e-11
8.497331071980331e-01	1.699466e+01	3.162319e-11
8.599731071979865e-01	1.719946e+01	3.179412e-11
8.702131071979399e-01	1.740426e+01	3.196552e-11
8.804531071978933e-01	1.760906e+01	3.213737e-11
8.906931071978467e-01	1.781386e+01	3.230967e-11
9.009331071978001e-01	1.801866e+01	3.248241e-11
9.111731071977535e-01	1.822346e+01	3.265557e-11
9.214131071977069e-01	1.842826e+01	3.282914e-11
9.316531071976603e-01	1.863306e+01	3.300313e-11
9.418931071976137e-01	1.883786e+01	3.317752e-11
9.521331071975671e-01	1.904266e+01	3.335229e-11
9.623731071975204e-01	1.924746e+01	3.352744e-11
9.726131071974738e-01	1.945226e+01	3.370297e-11
9.828531071974272e-01	1.965706e+01	3.387887e-11
9.930931071973806e-01	1.986186e+01	3.405513e-11
9.999931071973492e-01	1.999986e+01	3.417409e-11
1.000000000000000e+00	2.000000e+01	3.417415e-11
Step Information: Vgs=-2  (Step: 4/6)
0.000000000000000e+00	0.000000e+00	2.513582e-12
3.331071992655054e-04	6.662144e-03	1.722769e-05
1.163107199265508e-03	2.326214e-02	5.965759e-05
2.483107199265511e-03	4.966214e-02	1.256775e-04
4.283107199265499e-03	8.566214e-02	2.128164e-04
6.543107199265407e-03	1.308621e-01	3.175029e-04
9.243107199265297e-03	1.848621e-01	4.356754e-04
1.005310719926526e-02	2.010621e-01	4.696625e-04
1.326310719926513e-02	2.652622e-01	5.976998e-04
1.684310719926499e-02	3.368621e-01	7.279551e-04
2.029310719926485e-02	4.058622e-01	8.409561e-04
2.446310719926468e-02	4.892621e-01	9.611134e-04
2.889310719926450e-02	5.778621e-01	1.069045e-03
3.053310719926443e-02	6.106622e-01	1.103844e-03
3.523310719926562e-02	7.046621e-01	1.188120e-03
4.008310719926711e-02	8.016621e-01	1.251039e-03
4.077310719926732e-02	8.154622e-01	1.258004e-03
4.572310719926884e-02	9.144621e-01	1.293445e-03
5.083310719927040e-02	1.016662e+00	1.303570e-03
5.101310719927046e-02	1.020262e+00	1.303580e-03
6.125310719927359e-02	1.225062e+00	1.304178e-03
7.149310719927049e-02	1.429862e+00	1.304776e-03
8.173310719926652e-02	1.634662e+00	1.305374e-03
9.197310719926255e-02	1.839462e+00	1.305972e-03
1.022131071992586e-01	2.044262e+00	1.306569e-03
1.124531071992546e-01	2.249062e+00	1.307167e-03
1.226931071992506e-01	2.453862e+00	1.307765e-03
1.329331071992577e-01	2.658662e+00	1.308362e-03
1.431731071992679e-01	2.863462e+00	1.308960e-03
1.534131071992782e-01	3.068262e+00	1.309558e-03
1.636531071992884e-01	3.273062e+00	1.310156e-03
1.738931071992987e-01	3.477862e+00	1.310754e-03
1.841331071993089e-01	3.682662e+00	1.311351e-03
1.943731071993191e-01	3.887462e+00	1.311949e-03
2.046131071993294e-01	4.092262e+00	1.312547e-03
2.148531071993396e-01	4.297062e+00	1.313144e-03
2.250931071993499e-01	4.501862e+00	1.313742e-03
2.353331071993601e-01	4.706662e+00	1.314340e-03
2.455731071993703e-01	4.911462e+00	1.314938e-03
2.558131071993806e-01	5.116262e+00	1.315535e-03
2.660531071993908e-01	5.321062e+00	1.316133e-03
2.762931071994010e-01	5.525862e+00	1.316731e-03
2.865331071994113e-01	5.730662e+00	1.317328e-03
2.967731071994215e-01	5.935462e+00	1.317926e-03
3.070131071994318e-01	6.140262e+00	1.318524e-03
3.172531071994420e-01	6.345062e+00	1.319122e-03
3.274931071994522e-01	6.549862e+00	1.319719e-03
3.377331071994625e-01	6.754662e+00	1.320317e-03
3.479731071994727e-01	6.959462e+00	1.320915e-03
3.582131071994830e-01	7.164262e+00	1.321513e-03
3.684531071994932e-01	7.369062e+00	1.322110e-03
3.786931071995034e-01	7.573862e+00	1.322708e-03
3.889331071995137e-01	7.778662e+00	1.323306e-03
3.991731071995239e-01	7.983462e+00	1.323903e-03
4.094131071995342e-01	8.188262e+00	1.324501e-03
4.196531071995444e-01	8.393063e+00	1.325099e-03
4.298931071995546e-01	8.597862e+00	1.325696e-03
4.401331071995649e-01	8.802662e+00	1.326294e-03
4.503731071995751e-01	9.007463e+00	1.326892e-03
4.606131071995854e-01	9.212262e+00	1.327490e-03
4.708531071995956e-01	9.417062e+00	1.328087e-03
4.810931071996059e-01	9.621862e+00	1.328685e-03
4.913331071996161e-01	9.826662e+00	1.329283e-03
5.015731071996176e-01	1.003146e+01	1.329880e-03
5.118131071995710e-01	1.023626e+01	1.330478e-03
5.220531071995244e-01	1.044106e+01	1.331076e-03
5.322931071994778e-01	1.064586e+01	1.331673e-03
5.425331071994312e-01	1.085066e+01	1.332271e-03
5.527731071993846e-01	1.105546e+01	1.332869e-03
5.630131071993379e-01	1.126026e+01	1.333466e-03
5.732531071992913e-01	1.146506e+01	1.334064e-03
5.834931071992447e-01	1.166986e+01	1.334662e-03
5.937331071991981e-01	1.187466e+01	1.335259e-03
6.039731071991515e-01	1.207946e+01	1.335857e-03
6.142131071991049e-01	1.228426e+01	1.336455e-03
6.244531071990583e-01	1.248906e+01	1.337052e-03
6.346931071990117e-01	1.269386e+01	1.337650e-03
6.449331071989651e-01	1.289866e+01	1.338248e-03
6.551731071989185e-01	1.310346e+01	1.338845e-03
6.654131071988719e-01	1.330826e+01	1.339443e-03
6.756531071988253e-01	1.351306e+01	1.340041e-03
6.858931071987787e-01	1.371786e+01	1.340638e-03
6.961331071987321e-01	1.392266e+01	1.341236e-03
7.063731071986855e-01	1.412746e+01	1.341834e-03
7.166131071986389e-01	1.433226e+01	1.342432e-03
7.268531071985923e-01	1.453706e+01	1.343029e-03
7.370931071985457e-01	1.474186e+01	1.343627e-03
7.473331071984991e-01	1.494666e+01	1.344224e-03
7.575731071984525e-01	1.515146e+01	1.344822e-03
7.678131071984059e-01	1.535626e+01	1.345420e-03
7.780531071983593e-01	1.556106e+01	1.346017e-03
7.882931071983127e-01	1.576586e+01	1.346615e-03
7.985331071982661e-01	1.597066e+01	1.347213e-03
8.087731071982195e-01	1.617546e+01	1.347810e-03
8.190131071981729e-01	1.638026e+01	1.348408e-03
8.292531071981263e-01	1.658506e+01	1.349006e-03
8.394931071980797e-01	1.678986e+01	1.349603e-03
8.497331071980331e-01	1.699466e+01	1.350201e-03
8.599731071979865e-01	1.719946e+01	1.350799e-03
8.702131071979399e-01	1.740426e+01	1.351396e-03
8.804531071978933e-01	1.760906e+01	1.351994e-03
8.906931071978467e-01	1.781386e+01	1.352592e-03
9.009331071978001e-01	1.801866e+01	1.353189e-03
9.111731071977535e-01	1.822346e+01	1.353787e-03
