time	V(C,E)	V(p1)	Ic(Q1)
Step Information: Ib=11µ  (Step: 1/6)
0.000000000000000e+00	3.933950e-02	5.000000e+03	1.949227e-03
5.963107199629371e-02	4.535705e-02	4.701845e+03	2.068756e-03
1.006310719962949e-01	5.030768e-02	4.496845e+03	2.159739e-03
1.471310719962931e-01	5.708741e-02	4.264345e+03	2.272981e-03
1.867310719962888e-01	6.431031e-02	4.066345e+03	2.379013e-03
2.030310719962870e-01	6.784379e-02	3.984845e+03	2.425500e-03
2.333310719962836e-01	7.568966e-02	3.833345e+03	2.516696e-03
2.581310719962809e-01	8.395749e-02	3.709345e+03	2.596239e-03
2.781310719962787e-01	9.263629e-02	3.609345e+03	2.663709e-03
2.940310719962770e-01	1.017060e-01	3.529845e+03	2.719397e-03
3.054310719962757e-01	1.102087e-01	3.472845e+03	2.760288e-03
3.155310719962746e-01	1.201279e-01	3.422345e+03	2.796942e-03
3.234310719962737e-01	1.305803e-01	3.382845e+03	2.825579e-03
3.295310719962731e-01	1.414999e-01	3.352345e+03	2.847316e-03
3.343310719962725e-01	1.531428e-01	3.328345e+03	2.863805e-03
3.381310719962721e-01	1.656175e-01	3.309345e+03	2.876069e-03
3.412310719962718e-01	1.792985e-01	3.293845e+03	2.885147e-03
3.438310719962715e-01	1.944934e-01	3.280845e+03	2.891727e-03
3.462310719962712e-01	2.126547e-01	3.268845e+03	2.896622e-03
3.487310719962710e-01	2.364224e-01	3.256345e+03	2.900317e-03
3.520310719962706e-01	2.741191e-01	3.239845e+03	2.903350e-03
3.603310719962697e-01	3.806703e-01	3.198345e+03	2.907563e-03
4.078310719962644e-01	1.008195e+00	2.960845e+03	2.928085e-03
4.963310719962547e-01	2.201382e+00	2.518345e+03	2.967080e-03
5.102310719962532e-01	2.391680e+00	2.448845e+03	2.973299e-03
6.126310719962419e-01	3.818555e+00	1.936845e+03	3.019934e-03
7.150310719962306e-01	5.290902e+00	1.424845e+03	3.068055e-03
8.174310719962193e-01	6.810932e+00	9.128447e+02	3.117735e-03
9.198310719962081e-01	8.380997e+00	4.008446e+02	3.169051e-03
9.998310719961992e-01	9.644042e+00	8.446400e-01	3.210332e-03
9.999310719961992e-01	9.645642e+00	3.446400e-01	3.210384e-03
1.000000000000000e+00	9.646744e+00	1.000000e-08	3.210420e-03
Step Information: Ib=15µ  (Step: 2/6)
0.000000000000000e+00	1.652079e-02	5.000000e+03	1.953685e-03
6.903107199629398e-02	2.093592e-02	4.654845e+03	2.094279e-03
1.005310719962949e-01	2.319301e-02	4.497345e+03	2.165381e-03
1.623310719962915e-01	2.818707e-02	4.188345e+03	2.319884e-03
2.029310719962870e-01	3.198280e-02	3.985345e+03	2.433951e-03
2.554310719962812e-01	3.771153e-02	3.722845e+03	2.599150e-03
3.022310719962761e-01	4.389800e-02	3.488845e+03	2.766430e-03
3.053310719962757e-01	4.435441e-02	3.473345e+03	2.778269e-03
3.459310719962713e-01	5.103600e-02	3.270345e+03	2.943136e-03
3.809310719962674e-01	5.819772e-02	3.095345e+03	3.101586e-03
4.077310719962645e-01	6.502301e-02	2.961345e+03	3.234683e-03
4.328310719962617e-01	7.307101e-02	2.835845e+03	3.369757e-03
4.533310719962594e-01	8.155509e-02	2.733345e+03	3.488249e-03
4.698310719962576e-01	9.047599e-02	2.650845e+03	3.589255e-03
4.829310719962562e-01	9.983725e-02	2.585345e+03	3.673004e-03
4.931310719962551e-01	1.095648e-01	2.534345e+03	3.740165e-03
5.011310719962542e-01	1.198443e-01	2.494345e+03	3.793663e-03
5.072310719962535e-01	1.304807e-01	2.463845e+03	3.834485e-03
5.101310719962532e-01	1.369457e-01	2.449345e+03	3.853684e-03
5.142310719962527e-01	1.486330e-01	2.428845e+03	3.880197e-03
5.174310719962524e-01	1.611139e-01	2.412845e+03	3.899858e-03
5.199310719962521e-01	1.743497e-01	2.400345e+03	3.914005e-03
5.220310719962519e-01	1.892535e-01	2.389845e+03	3.924483e-03
5.239310719962517e-01	2.070829e-01	2.380345e+03	3.932294e-03
5.257310719962515e-01	2.287255e-01	2.371345e+03	3.937834e-03
5.279310719962512e-01	2.611488e-01	2.360345e+03	3.942244e-03
5.320310719962508e-01	3.308365e-01	2.339845e+03	3.946787e-03
5.725310719962463e-01	1.057249e+00	2.137345e+03	3.979186e-03
6.125310719962419e-01	1.786763e+00	1.937345e+03	4.011580e-03
6.936310719962330e-01	3.302912e+00	1.531845e+03	4.078911e-03
7.149310719962306e-01	3.709587e+00	1.425345e+03	4.096971e-03
8.173310719962193e-01	5.716049e+00	9.133447e+02	4.186079e-03
9.197310719962081e-01	7.811730e+00	4.013446e+02	4.279149e-03
9.998310719961992e-01	9.517134e+00	8.446400e-01	4.354888e-03
9.999310719961992e-01	9.519301e+00	3.446400e-01	4.354984e-03
1.000000000000000e+00	9.520795e+00	1.000000e-08	4.355050e-03
Step Information: Ib=18µ  (Step: 3/6)
0.000000000000000e+00	6.370019e-03	5.000000e+03	1.955665e-03
6.723107199629393e-02	1.002096e-02	4.663845e+03	2.092611e-03
1.005310719962949e-01	1.201598e-02	4.497345e+03	2.167800e-03
1.632310719962914e-01	1.618716e-02	4.183845e+03	2.325103e-03
2.029310719962870e-01	1.916865e-02	3.985345e+03	2.437072e-03
2.592310719962808e-01	2.397934e-02	3.703845e+03	2.615691e-03
3.053310719962757e-01	2.857691e-02	3.473345e+03	2.782664e-03
3.531310719962705e-01	3.419807e-02	3.234345e+03	2.979843e-03
3.961310719962657e-01	4.029172e-02	3.019345e+03	3.182624e-03
4.077310719962645e-01	4.215819e-02	2.961345e+03	3.242118e-03
4.443310719962604e-01	4.888237e-02	2.778345e+03	3.445204e-03
4.760310719962569e-01	5.611224e-02	2.619845e+03	3.642591e-03
5.030310719962540e-01	6.386542e-02	2.484845e+03	3.829113e-03
5.101310719962532e-01	6.625208e-02	2.449345e+03	3.881294e-03
5.313310719962508e-01	7.463123e-02	2.343345e+03	4.045574e-03
5.485310719962490e-01	8.346542e-02	2.257345e+03	4.188809e-03
5.622310719962474e-01	9.272415e-02	2.188845e+03	4.309598e-03
5.730310719962463e-01	1.024442e-01	2.134845e+03	4.408936e-03
5.814310719962453e-01	1.126285e-01	2.092845e+03	4.488375e-03
5.878310719962446e-01	1.231660e-01	2.060845e+03	4.549683e-03
5.927310719962441e-01	1.341783e-01	2.036345e+03	4.596486e-03
5.965310719962437e-01	1.459035e-01	2.017345e+03	4.632026e-03
5.994310719962433e-01	1.581997e-01	2.002845e+03	4.657995e-03
6.017310719962431e-01	1.715385e-01	1.991345e+03	4.677139e-03
6.036310719962429e-01	1.865155e-01	1.981845e+03	4.691220e-03
6.052310719962427e-01	2.033354e-01	1.973845e+03	4.701159e-03
6.067310719962425e-01	2.236870e-01	1.966345e+03	4.708339e-03
6.084310719962424e-01	2.522984e-01	1.957845e+03	4.713856e-03
6.111310719962421e-01	3.056312e-01	1.944345e+03	4.718872e-03
6.125310719962419e-01	3.348924e-01	1.937345e+03	4.720713e-03
6.473310719962381e-01	1.081699e+00	1.763345e+03	4.760534e-03
7.036310719962319e-01	2.317298e+00	1.481845e+03	4.826176e-03
7.149310719962306e-01	2.569412e+00	1.425345e+03	4.839570e-03
7.929310719962220e-01	4.348581e+00	1.035345e+03	4.934095e-03
8.173310719962193e-01	4.919500e+00	9.133447e+02	4.964427e-03
9.168310719962084e-01	7.322177e+00	4.158446e+02	5.092080e-03
9.197310719962081e-01	7.394059e+00	4.013446e+02	5.095900e-03
9.998310719961992e-01	9.423018e+00	8.446400e-01	5.203697e-03
9.999310719961992e-01	9.425605e+00	3.446400e-01	5.203835e-03
1.000000000000000e+00	9.427387e+00	1.000000e-08	5.203929e-03
Step Information: Ib=25µ  (Step: 4/6)
0.000000000000000e+00	-9.017630e-03	5.000000e+03	1.958663e-03
5.433107199629356e-02	-6.615163e-03	4.728345e+03	2.068138e-03
1.005310719962949e-01	-4.393972e-03	4.497345e+03	2.171347e-03
1.558310719962922e-01	-1.480540e-03	4.220845e+03	2.309303e-03
2.029310719962870e-01	1.261063e-03	3.985345e+03	2.441428e-03
2.566310719962811e-01	4.742689e-03	3.716845e+03	2.611814e-03
3.053310719962757e-01	8.303981e-03	3.473345e+03	2.788302e-03
3.551310719962703e-01	1.244815e-02	3.224345e+03	2.995282e-03
4.022310719962651e-01	1.696944e-02	2.988845e+03	3.221452e-03
4.077310719962645e-01	1.754359e-02	2.961345e+03	3.250109e-03
4.514310719962596e-01	2.252625e-02	2.742845e+03	3.497289e-03
4.918310719962552e-01	2.795860e-02	2.540845e+03	3.761741e-03
5.101310719962532e-01	3.075940e-02	2.449345e+03	3.895134e-03
5.452310719962493e-01	3.691879e-02	2.273845e+03	4.179312e-03
5.766310719962459e-01	4.361658e-02	2.116845e+03	4.470960e-03
6.042310719962428e-01	5.087331e-02	1.978845e+03	4.762861e-03
6.125310719962419e-01	5.340227e-02	1.937345e+03	4.858170e-03
6.351310719962394e-01	6.143788e-02	1.824345e+03	5.137819e-03
6.540310719962373e-01	7.002557e-02	1.729845e+03	5.397045e-03
6.695310719962356e-01	7.917225e-02	1.652345e+03	5.629193e-03
6.819310719962343e-01	8.882978e-02	1.590345e+03	5.828772e-03
6.916310719962332e-01	9.894827e-02	1.541845e+03	5.993785e-03
6.991310719962324e-01	1.095732e-01	1.504345e+03	6.126435e-03
7.048310719962317e-01	1.206773e-01	1.475845e+03	6.229534e-03
7.091310719962313e-01	1.323099e-01	1.454345e+03	6.307716e-03
7.123310719962309e-01	1.443914e-01	1.438345e+03	6.365094e-03
7.147310719962306e-01	1.570210e-01	1.426345e+03	6.406589e-03
7.149310719962306e-01	1.582849e-01	1.425345e+03	6.409939e-03
7.167310719962304e-01	1.718324e-01	1.416345e+03	6.438859e-03
7.182310719962303e-01	1.874130e-01	1.408845e+03	6.460396e-03
7.194310719962301e-01	2.042706e-01	1.402845e+03	6.474874e-03
7.205310719962300e-01	2.243601e-01	1.397345e+03	6.485173e-03
7.218310719962299e-01	2.541741e-01	1.390845e+03	6.493394e-03
7.238310719962296e-01	3.085310e-01	1.380845e+03	6.500489e-03
7.432310719962275e-01	8.799495e-01	1.283845e+03	6.542910e-03
7.813310719962233e-01	2.025457e+00	1.093345e+03	6.626774e-03
8.173310719962193e-01	3.135133e+00	9.133447e+02	6.708021e-03
8.785310719962126e-01	5.085356e+00	6.073447e+02	6.850813e-03
9.197310719962081e-01	6.445693e+00	4.013446e+02	6.950415e-03
9.993310719961993e-01	9.189189e+00	3.344640e+00	7.151292e-03
9.999310719961992e-01	9.210469e+00	3.446400e-01	7.152850e-03
1.000000000000000e+00	9.212910e+00	1.000000e-08	7.153029e-03
Step Information: Ib=30µ  (Step: 5/6)
0.000000000000000e+00	-1.654605e-02	5.000000e+03	1.960126e-03
4.103107199629318e-02	-1.488150e-02	4.794845e+03	2.041773e-03
8.523107199629444e-02	-1.296523e-02	4.573845e+03	2.137702e-03
1.005310719962949e-01	-1.226908e-02	4.497345e+03	2.173045e-03
1.476310719962931e-01	-1.000773e-02	4.261845e+03	2.289585e-03
1.959310719962878e-01	-7.479243e-03	4.020345e+03	2.422844e-03
2.029310719962870e-01	-7.093037e-03	3.985345e+03	2.443456e-03
2.516310719962817e-01	-4.249044e-03	3.741845e+03	2.597184e-03
3.000310719962763e-01	-1.110507e-03	3.499845e+03	2.770427e-03
3.053310719962757e-01	-7.451382e-04	3.473345e+03	2.790813e-03
3.526310719962705e-01	2.735417e-03	3.236845e+03	2.986982e-03
3.984310719962655e-01	6.547019e-03	3.007845e+03	3.205148e-03
4.077310719962645e-01	7.383864e-03	2.961345e+03	3.253401e-03
4.511310719962597e-01	1.162558e-02	2.744345e+03	3.499253e-03
4.922310719962552e-01	1.626237e-02	2.538845e+03	3.768978e-03
5.101310719962532e-01	1.851740e-02	2.449345e+03	3.899898e-03
5.473310719962491e-01	2.378416e-02	2.263345e+03	4.203315e-03
5.815310719962453e-01	2.951788e-02	2.092345e+03	4.527076e-03
6.125310719962419e-01	3.574143e-02	1.937345e+03	4.866771e-03
6.405310719962388e-01	4.256043e-02	1.797345e+03	5.220420e-03
6.653310719962361e-01	4.999766e-02	1.673345e+03	5.579237e-03
6.868310719962337e-01	5.806477e-02	1.565845e+03	5.932313e-03
7.050310719962317e-01	6.675389e-02	1.474845e+03	6.267458e-03
7.149310719962306e-01	7.258700e-02	1.425345e+03	6.465723e-03
7.281310719962292e-01	8.229864e-02	1.359345e+03	6.749541e-03
7.385310719962280e-01	9.250502e-02	1.307345e+03	6.989969e-03
7.465310719962271e-01	1.031321e-01	1.267345e+03	7.185252e-03
7.526310719962265e-01	1.142506e-01	1.236845e+03	7.339710e-03
7.572310719962260e-01	1.259085e-01	1.213845e+03	7.458422e-03
7.606310719962256e-01	1.379954e-01	1.196845e+03	7.546195e-03
7.631310719962253e-01	1.504788e-01	1.184345e+03	7.609427e-03
7.650310719962251e-01	1.637886e-01	1.174845e+03	7.655331e-03
7.665310719962249e-01	1.785299e-01	1.167345e+03	7.688739e-03
7.677310719962248e-01	1.949228e-01	1.161345e+03	7.712132e-03
7.687310719962247e-01	2.133572e-01	1.156345e+03	7.728025e-03
7.697310719962246e-01	2.373031e-01	1.151345e+03	7.739674e-03
7.709310719962245e-01	2.727640e-01	1.145345e+03	7.748419e-03
7.736310719962242e-01	3.643347e-01	1.131845e+03	7.758914e-03
7.972310719962216e-01	1.197977e+00	1.013845e+03	7.831797e-03
8.173310719962193e-01	1.920490e+00	9.133447e+02	7.894906e-03
8.600310719962146e-01	3.494693e+00	6.998447e+02	8.032414e-03
9.135310719962088e-01	5.546174e+00	4.323446e+02	8.211616e-03
9.197310719962081e-01	5.789849e+00	4.013446e+02	8.232902e-03
9.840310719962010e-01	8.393549e+00	7.984464e+01	8.460344e-03
9.999310719961992e-01	9.059723e+00	3.446400e-01	8.518537e-03
1.000000000000000e+00	9.062626e+00	1.000000e-08	8.518790e-03
Step Information: Ib=40µ  (Step: 6/6)
0.000000000000000e+00	-2.746941e-02	5.000000e+03	1.962245e-03
4.643107199629333e-02	-2.574544e-02	4.767845e+03	2.055282e-03
8.433107199629442e-02	-2.424783e-02	4.578345e+03	2.138036e-03
1.005310719962949e-01	-2.358052e-02	4.497345e+03	2.175479e-03
1.275310719962953e-01	-2.242926e-02	4.362345e+03	2.240889e-03
1.557310719962922e-01	-2.117084e-02	4.221345e+03	2.313547e-03
1.876310719962887e-01	-1.967184e-02	4.061845e+03	2.401641e-03
2.029310719962870e-01	-1.892209e-02	3.985345e+03	2.446320e-03
2.389310719962830e-01	-1.707156e-02	3.805345e+03	2.558312e-03
2.770310719962789e-01	-1.496634e-02	3.614845e+03	2.688586e-03
3.053310719962757e-01	-1.329195e-02	3.473345e+03	2.794287e-03
3.454310719962713e-01	-1.073381e-02	3.272845e+03	2.959147e-03
3.858310719962669e-01	-7.900335e-03	3.070845e+03	3.146177e-03
4.077310719962645e-01	-6.239381e-03	2.961345e+03	3.257804e-03
4.475310719962601e-01	-2.956063e-03	2.762345e+03	3.482366e-03
4.864310719962558e-01	6.463528e-04	2.567845e+03	3.733956e-03
5.101310719962532e-01	3.071580e-03	2.449345e+03	3.905894e-03
5.467310719962492e-01	7.236812e-03	2.266345e+03	4.204930e-03
5.815310719962453e-01	1.178429e-02	2.092345e+03	4.535083e-03
6.125310719962419e-01	1.645825e-02	1.937345e+03	4.876141e-03
6.432310719962385e-01	2.184831e-02	1.783845e+03	5.268516e-03
6.716310719962354e-01	2.773978e-02	1.641845e+03	5.692206e-03
6.976310719962325e-01	3.418587e-02	1.511845e+03	6.144494e-03
7.149310719962306e-01	3.923798e-02	1.425345e+03	6.487379e-03
7.366310719962282e-01	4.678599e-02	1.316845e+03	6.975402e-03
7.557310719962261e-01	5.504432e-02	1.221345e+03	7.469558e-03
7.721310719962243e-01	6.401616e-02	1.139345e+03	7.952637e-03
7.859310719962228e-01	7.376159e-02	1.070345e+03	8.409272e-03
7.971310719962216e-01	8.419440e-02	1.014345e+03	8.818832e-03
8.059310719962206e-01	9.523679e-02	9.703447e+02	9.167782e-03
8.126310719962199e-01	1.067831e-01	9.368447e+02	9.450130e-03
8.173310719962193e-01	1.179684e-01	9.133447e+02	9.656211e-03
8.210310719962189e-01	1.302472e-01	8.948447e+02	9.821771e-03
8.237310719962186e-01	1.429789e-01	8.813447e+02	9.942680e-03
8.257310719962184e-01	1.564692e-01	8.713447e+02	1.003025e-02
8.272310719962183e-01	1.710080e-01	8.638447e+02	1.009257e-02
8.283310719962181e-01	1.861568e-01	8.583447e+02	1.013425e-02
8.292310719962180e-01	2.034035e-01	8.538447e+02	1.016367e-02
8.300310719962180e-01	2.242325e-01	8.498447e+02	1.018432e-02
8.308310719962179e-01	2.512710e-01	8.458447e+02	1.019865e-02
8.319310719962177e-01	2.964803e-01	8.403447e+02	1.021011e-02
8.377310719962171e-01	5.626950e-01	8.113447e+02	1.024253e-02
8.590310719962148e-01	1.560011e+00	7.048447e+02	1.035730e-02
8.892310719962114e-01	3.012949e+00	5.538447e+02	1.052453e-02
9.197310719962081e-01	4.528726e+00	4.013446e+02	1.069899e-02
9.645310719962031e-01	6.848575e+00	1.773446e+02	1.096601e-02
9.999310719961992e-01	8.765214e+00	3.446400e-01	1.118662e-02
1.000000000000000e+00	8.769017e+00	1.000000e-08	1.118706e-02
