Circuit: * C:\users\eg\Desktop\hdd\Documents\UTN\2023\Dispositivos\TPS\3\Circuito1.asc

Warning: Multiple definitions of model "2scr375p" Type: BJT
Warning: Multiple definitions of model "bc857b" Type: BJT
Warning: Multiple definitions of model "bc847c" Type: BJT
Warning: Multiple definitions of model "bc847b" Type: BJT
Direct Newton iteration for .op point succeeded.
Semiconductor Device Operating Points:
                        --- Bipolar Transistors ---
Name:       q1
Model:    mod548
Ib:      -1.01e-11
Ic:       1.01e-11
Vbe:      0.00e+00
Vbc:     -1.00e+01
Vce:      1.00e+01
BetaDC:  -1.00e+00
Gm:       8.41e-13
Rpi:      9.61e+11
Rx:       2.65e+01
Ro:       4.70e+15
Cbe:      1.33e-11
Cbc:      1.74e-12
Cjs:      0.00e+00
BetaAC:   8.08e-01
Cbx:      0.00e+00
Ft:       6.49e-03



Date: Mon Jun 12 12:47:31 2023
Total elapsed time: 0.051 seconds.

tnom = 27
temp = 27
method = trap
totiter = 5
traniter = 0
tranpoints = 0
accept = 0
rejected = 0
matrix size = 5
fillins = 0
solver = Normal
Avg thread counts: 8.0/0.0/8.0/8.0
Matrix Compiler1: 248 bytes object code size
Matrix Compiler2: 355 bytes object code size
