time	V(b1)	V(b2)	V(e)	V(rpot)	I(R3)	I(R4)	Ix(U1:B2)	Ix(U1:E)
0.000000000000000e+00	7.040492e-02	1.967998e+01	6.338684e+00	1.000000e-20	3.200224e-03	3.200224e-03	3.200224e-03	-2.658313e-11
4.496236247875096e-06	7.040480e-02	1.967998e+01	6.608047e+00	1.798495e+01	3.200218e-03	3.200218e-03	3.200218e-03	-2.631377e-11
1.348870874363917e-05	7.040472e-02	1.967998e+01	7.128307e+00	5.395483e+01	3.200215e-03	3.200215e-03	3.200215e-03	-2.579348e-11
3.147365373515343e-05	7.040472e-02	1.967998e+01	8.086174e+00	1.258946e+02	3.200215e-03	3.200215e-03	3.200215e-03	-2.483563e-11
6.744354371819583e-05	7.040472e-02	1.967998e+01	9.828327e+00	2.697742e+02	3.200215e-03	3.200215e-03	3.200215e-03	-2.309351e-11
7.643601621395990e-05	7.040473e-02	1.967998e+01	1.021933e+01	3.057441e+02	3.200215e-03	3.200215e-03	3.200215e-03	-2.270243e-11
9.891719745334926e-05	7.040473e-02	1.967998e+01	1.110510e+01	3.956688e+02	3.200215e-03	3.200215e-03	3.200215e-03	-2.175494e-11
1.101577880730509e-04	7.040583e-02	1.967997e+01	1.151158e+01	4.406312e+02	3.200265e-03	3.200265e-03	3.200265e-03	-1.070606e-11
1.146540243209260e-04	7.041120e-02	1.967995e+01	1.166635e+01	4.586161e+02	3.200502e-03	3.200509e-03	3.200502e-03	6.899377e-09
1.236464968166900e-04	7.044187e-02	1.967981e+01	1.197027e+01	4.945860e+02	3.201858e-03	3.201903e-03	3.201858e-03	4.555307e-08
1.239275115821892e-04	7.044759e-02	1.967979e+01	1.197960e+01	4.957101e+02	3.202110e-03	3.202163e-03	3.202110e-03	5.290585e-08
1.244895411131736e-04	7.048356e-02	1.967963e+01	1.199802e+01	4.979582e+02	3.203700e-03	3.203798e-03	3.203700e-03	9.860815e-08
1.256136001751423e-04	7.063364e-02	1.967897e+01	1.203474e+01	5.024544e+02	3.210329e-03	3.210620e-03	3.210329e-03	2.909814e-07
1.258946149406415e-04	7.072236e-02	1.967858e+01	1.204389e+01	5.035785e+02	3.214241e-03	3.214653e-03	3.214241e-03	4.117038e-07
1.259648686320197e-04	7.076203e-02	1.967840e+01	1.204618e+01	5.038595e+02	3.215985e-03	3.216456e-03	3.215985e-03	4.704263e-07
1.259824320548608e-04	7.077524e-02	1.967834e+01	1.204675e+01	5.039297e+02	3.216564e-03	3.217056e-03	3.216564e-03	4.917100e-07
1.260175589005430e-04	7.081299e-02	1.967818e+01	1.204789e+01	5.040702e+02	3.218214e-03	3.218772e-03	3.218214e-03	5.580668e-07
1.260878125919213e-04	7.092282e-02	1.967770e+01	1.205017e+01	5.043513e+02	3.222999e-03	3.223764e-03	3.222999e-03	7.653044e-07
1.261053760147623e-04	7.097756e-02	1.967747e+01	1.205075e+01	5.044215e+02	3.225355e-03	3.226253e-03	3.225355e-03	8.976210e-07
1.261405028604445e-04	7.117230e-02	1.967664e+01	1.205189e+01	5.045620e+02	3.233647e-03	3.235104e-03	3.233647e-03	1.458328e-06
1.261492845718720e-04	7.125801e-02	1.967628e+01	1.205217e+01	5.045971e+02	3.237237e-03	3.239000e-03	3.237237e-03	1.764561e-06
1.261514799997254e-04	7.128941e-02	1.967615e+01	1.205224e+01	5.046059e+02	3.238526e-03	3.240427e-03	3.238526e-03	1.901667e-06
1.261558708554322e-04	7.139067e-02	1.967575e+01	1.205238e+01	5.046235e+02	3.242517e-03	3.245031e-03	3.242517e-03	2.513922e-06
1.261646525668597e-04	7.175221e-02	1.967440e+01	1.205267e+01	5.046586e+02	3.256034e-03	3.261464e-03	3.256034e-03	5.430692e-06
1.261668479947131e-04	7.193717e-02	1.967376e+01	1.205274e+01	5.046674e+02	3.262414e-03	3.269871e-03	3.262414e-03	7.458581e-06
1.261673968516730e-04	7.201673e-02	1.967351e+01	1.205276e+01	5.046696e+02	3.264903e-03	3.273488e-03	3.264903e-03	8.586046e-06
1.261684945656066e-04	7.222587e-02	1.967290e+01	1.205279e+01	5.046740e+02	3.270976e-03	3.282994e-03	3.270976e-03	1.202167e-05
1.261687689940866e-04	7.229995e-02	1.967271e+01	1.205280e+01	5.046751e+02	3.272933e-03	3.286361e-03	3.272933e-03	1.343584e-05
1.261693178510465e-04	7.249689e-02	1.967222e+01	1.205282e+01	5.046773e+02	3.277761e-03	3.295313e-03	3.277761e-03	1.756217e-05
1.261694550652864e-04	7.256150e-02	1.967208e+01	1.205282e+01	5.046778e+02	3.279211e-03	3.298250e-03	3.279211e-03	1.904685e-05
1.261697294937664e-04	7.277227e-02	1.967168e+01	1.205283e+01	5.046789e+02	3.283176e-03	3.307831e-03	3.283176e-03	2.465817e-05
1.261702783507263e-04	7.344110e-02	1.967061e+01	1.205285e+01	5.046811e+02	3.293858e-03	3.338232e-03	3.293858e-03	4.437789e-05
1.261704155649662e-04	7.387292e-02	1.967016e+01	1.205285e+01	5.046817e+02	3.298355e-03	3.357860e-03	3.298355e-03	5.951421e-05
1.261706899934462e-04	7.566679e-02	1.966878e+01	1.205286e+01	5.046828e+02	3.312247e-03	3.439399e-03	3.312247e-03	1.271693e-04
1.261707586005661e-04	7.657823e-02	1.966826e+01	1.205287e+01	5.046830e+02	3.317374e-03	3.480829e-03	3.317374e-03	1.634615e-04
1.261707757523461e-04	7.695721e-02	1.966810e+01	1.205287e+01	5.046831e+02	3.319032e-03	3.498055e-03	3.319032e-03	1.790302e-04
1.261708100559061e-04	7.818555e-02	1.966770e+01	1.205287e+01	5.046832e+02	3.323012e-03	3.553889e-03	3.323012e-03	2.308880e-04
1.261708786630261e-04	8.199107e-02	1.966672e+01	1.205287e+01	5.046835e+02	3.332796e-03	3.726867e-03	3.332796e-03	3.940727e-04
1.261708958148061e-04	8.378321e-02	1.966640e+01	1.205287e+01	5.046836e+02	3.335965e-03	3.808327e-03	3.335965e-03	4.724124e-04
1.261709301183661e-04	9.916031e-02	1.966540e+01	1.205287e+01	5.046837e+02	3.346029e-03	4.507287e-03	3.346029e-03	1.161408e-03
1.261709987254861e-04	1.985150e-01	1.966255e+01	1.205287e+01	5.046840e+02	3.374547e-03	9.023408e-03	3.374547e-03	5.649415e-03
1.261710366853297e-04	3.325773e-01	1.966075e+01	1.205286e+01	5.046841e+02	3.392555e-03	1.511715e-02	3.392555e-03	1.172573e-02
1.261710461752941e-04	4.017194e-01	1.966029e+01	1.205286e+01	5.046842e+02	3.397116e-03	1.825997e-02	3.397116e-03	1.486382e-02
1.261710651552228e-04	6.423457e-01	1.965944e+01	1.205285e+01	5.046843e+02	3.405548e-03	2.919753e-02	3.405548e-03	2.579228e-02
1.261711031150664e-04	1.357488e+00	1.965800e+01	1.205282e+01	5.046844e+02	3.419981e-03	6.170398e-02	3.419981e-03	5.828398e-02
1.261711382908731e-04	2.201074e+00	1.965695e+01	1.205276e+01	5.046845e+02	3.430483e-03	1.000488e-01	3.430483e-03	9.661796e-02
1.261711574785385e-04	2.681727e+00	1.965655e+01	1.205272e+01	5.046846e+02	3.434537e-03	1.218967e-01	3.434537e-03	1.184616e-01
1.261711755595196e-04	3.067076e+00	1.965629e+01	1.205267e+01	5.046847e+02	3.437072e-03	1.394126e-01	3.437072e-03	1.359751e-01
1.261711987503716e-04	3.422359e+00	1.965609e+01	1.205260e+01	5.046848e+02	3.439125e-03	1.555618e-01	3.439125e-03	1.521225e-01
1.261712280986177e-04	3.714269e+00	1.965593e+01	1.205250e+01	5.046849e+02	3.440683e-03	1.688304e-01	3.440683e-03	1.653881e-01
1.261712431966516e-04	3.804981e+00	1.965589e+01	1.205245e+01	5.046850e+02	3.441150e-03	1.729537e-01	3.441150e-03	1.695101e-01
1.261712735868836e-04	3.890844e+00	1.965584e+01	1.205234e+01	5.046851e+02	3.441596e-03	1.768565e-01	3.441596e-03	1.734127e-01
1.261713275911291e-04	3.941109e+00	1.965581e+01	1.205214e+01	5.046853e+02	3.441905e-03	1.791413e-01	3.441905e-03	1.756992e-01
1.261715801402477e-04	3.949616e+00	1.965577e+01	1.205120e+01	5.046863e+02	3.442303e-03	1.795280e-01	3.442303e-03	1.760856e-01
1.261718326893662e-04	3.955806e+00	1.965573e+01	1.205026e+01	5.046873e+02	3.442690e-03	1.798094e-01	3.442690e-03	1.763667e-01
1.261720852384847e-04	3.959679e+00	1.965569e+01	1.204933e+01	5.046883e+02	3.443066e-03	1.799854e-01	3.443066e-03	1.765425e-01
1.261723377876032e-04	3.961235e+00	1.965566e+01	1.204839e+01	5.046893e+02	3.443432e-03	1.800561e-01	3.443432e-03	1.766129e-01
1.261725903367218e-04	3.960473e+00	1.965562e+01	1.204745e+01	5.046904e+02	3.443787e-03	1.800215e-01	3.443787e-03	1.765779e-01
1.261728428858403e-04	3.957395e+00	1.965559e+01	1.204651e+01	5.046914e+02	3.444131e-03	1.798816e-01	3.444131e-03	1.764376e-01
1.261730954349588e-04	3.952000e+00	1.965555e+01	1.204557e+01	5.046924e+02	3.444465e-03	1.796364e-01	3.444465e-03	1.761919e-01
1.262920310609000e-04	3.796007e+00	1.963927e+01	1.161741e+01	5.051681e+02	3.607256e-03	1.725458e-01	3.607256e-03	1.689385e-01
1.264109666868411e-04	3.647109e+00	1.962374e+01	1.120865e+01	5.056439e+02	3.762634e-03	1.657777e-01	3.762634e-03	1.620148e-01
1.265299023127823e-04	3.505305e+00	1.960894e+01	1.081930e+01	5.061196e+02	3.910600e-03	1.593321e-01	3.910600e-03	1.554208e-01
1.266488379387234e-04	3.370596e+00	1.959488e+01	1.044936e+01	5.065954e+02	4.051155e-03	1.532089e-01	4.051155e-03	1.491565e-01
1.267677735646646e-04	3.242981e+00	1.958157e+01	1.009882e+01	5.070711e+02	4.184297e-03	1.474083e-01	4.184297e-03	1.432220e-01
1.268867091906057e-04	3.122461e+00	1.956900e+01	9.767690e+00	5.075468e+02	4.310026e-03	1.419301e-01	4.310026e-03	1.376172e-01
1.270056448165469e-04	3.009036e+00	1.955717e+01	9.455966e+00	5.080226e+02	4.428344e-03	1.367744e-01	4.428344e-03	1.323421e-01
1.278398234532963e-04	2.318782e+00	1.948521e+01	7.558416e+00	5.113593e+02	5.147891e-03	1.053992e-01	5.147891e-03	1.002444e-01
1.289801887446457e-04	1.629335e+00	1.941349e+01	5.662022e+00	5.159208e+02	5.865133e-03	7.406069e-02	5.865133e-03	6.819333e-02
1.302786419396240e-04	1.102482e+00	1.935891e+01	4.212412e+00	5.211146e+02	6.410902e-03	5.011283e-02	6.410902e-03	4.370248e-02
1.314911056879281e-04	7.885099e-01	1.932672e+01	3.350813e+00	5.259644e+02	6.732857e-03	3.584136e-02	6.732857e-03	2.910826e-02
1.327998856020945e-04	5.766184e-01	1.930551e+01	2.776413e+00	5.311995e+02	6.944902e-03	2.620993e-02	6.944902e-03	1.926417e-02
1.341737977111762e-04	4.374952e-01	1.929237e+01	2.413385e+00	5.366952e+02	7.076263e-03	1.988615e-02	7.076263e-03	1.280867e-02
1.357668190924977e-04	3.371855e-01	1.928438e+01	2.182485e+00	5.430673e+02	7.156239e-03	1.532661e-02	7.156239e-03	8.169805e-03
1.375395194803397e-04	2.469414e-01	1.928030e+01	2.045004e+00	5.501581e+02	7.196976e-03	1.122461e-02	7.196976e-03	4.027621e-03
1.375636339434466e-04	2.334300e-01	1.928055e+01	2.044307e+00	5.502545e+02	7.194533e-03	1.061046e-02	7.194533e-03	3.415924e-03
1.375637281405689e-04	2.333292e-01	1.928055e+01	2.044307e+00	5.502549e+02	7.194512e-03	1.060587e-02	7.194512e-03	3.411360e-03
1.375639165348136e-04	2.331222e-01	1.928055e+01	2.044307e+00	5.502557e+02	7.194462e-03	1.059646e-02	7.194462e-03	3.401989e-03
1.375642933233029e-04	2.326743e-01	1.928056e+01	2.044307e+00	5.502572e+02	7.194356e-03	1.057610e-02	7.194356e-03	3.381719e-03
1.375650469002815e-04	2.316120e-01	1.928059e+01	2.044308e+00	5.502602e+02	7.194099e-03	1.052782e-02	7.194099e-03	3.333309e-03
1.375665540542248e-04	2.279624e-01	1.928069e+01	2.044316e+00	5.502662e+02	7.193146e-03	1.036193e-02	7.193146e-03	3.167724e-03
1.375695683621114e-04	2.144884e-01	1.928108e+01	2.044349e+00	5.502783e+02	7.189183e-03	9.749471e-03	7.189183e-03	2.560015e-03
1.375710093990679e-04	2.004883e-01	1.928169e+01	2.044381e+00	5.502841e+02	7.183095e-03	9.113106e-03	7.183095e-03	1.930099e-03
1.375723887524910e-04	1.805187e-01	1.928423e+01	2.044440e+00	5.502896e+02	7.157679e-03	8.205393e-03	7.157679e-03	1.047769e-03
1.375741481385861e-04	1.609176e-01	1.929201e+01	2.044546e+00	5.502966e+02	7.079927e-03	7.314435e-03	7.079927e-03	2.345133e-04
1.375758852728837e-04	1.533648e-01	1.930315e+01	2.044668e+00	5.503035e+02	6.968478e-03	6.971126e-03	6.968478e-03	2.649005e-06
1.375777479614287e-04	1.504825e-01	1.931599e+01	2.044803e+00	5.503110e+02	6.840113e-03	6.840115e-03	6.840113e-03	2.643067e-09
1.375799229876018e-04	1.473308e-01	1.933031e+01	2.044962e+00	5.503197e+02	6.696854e-03	6.696854e-03	6.696854e-03	-1.935430e-11
1.375842730399479e-04	1.414955e-01	1.935684e+01	2.045278e+00	5.503371e+02	6.431613e-03	6.431613e-03	6.431613e-03	-2.241607e-11
1.375929731446401e-04	1.313687e-01	1.940287e+01	2.045911e+00	5.503719e+02	5.971303e-03	5.971303e-03	5.971303e-03	-2.362122e-11
1.376103733540107e-04	1.152615e-01	1.947608e+01	2.047177e+00	5.504415e+02	5.239161e-03	5.239161e-03	5.239161e-03	-2.553670e-11
1.376329569878348e-04	1.001976e-01	1.954456e+01	2.048820e+00	5.505318e+02	4.554435e-03	4.554435e-03	4.554435e-03	-2.732767e-11
1.376597191408840e-04	8.863737e-02	1.959710e+01	2.050767e+00	5.506389e+02	4.028972e-03	4.028972e-03	4.028972e-03	-2.870139e-11
1.376903139917590e-04	8.080818e-02	1.963269e+01	2.052992e+00	5.507612e+02	3.673099e-03	3.673099e-03	3.673099e-03	-2.963084e-11
1.377273619033031e-04	7.570610e-02	1.965588e+01	2.055686e+00	5.509094e+02	3.441186e-03	3.441186e-03	3.441186e-03	-3.023529e-11
1.377722119561553e-04	7.275470e-02	1.966930e+01	2.058946e+00	5.510889e+02	3.307032e-03	3.307032e-03	3.307032e-03	-3.058324e-11
1.378293321655233e-04	7.124460e-02	1.967616e+01	2.063098e+00	5.513173e+02	3.238391e-03	3.238391e-03	3.238391e-03	-3.075879e-11
1.379036329715588e-04	7.062437e-02	1.967898e+01	2.068496e+00	5.516145e+02	3.210199e-03	3.210199e-03	3.210199e-03	-3.082720e-11
1.385882633552850e-04	7.048978e-02	1.967959e+01	2.118128e+00	5.543530e+02	3.204081e-03	3.204081e-03	3.204081e-03	-3.079359e-11
1.392728937390112e-04	7.038960e-02	1.968005e+01	2.167558e+00	5.570916e+02	3.199527e-03	3.199527e-03	3.199527e-03	-3.075608e-11
1.399575241227374e-04	7.032382e-02	1.968034e+01	2.216787e+00	5.598301e+02	3.196537e-03	3.196537e-03	3.196537e-03	-3.071468e-11
1.406421545064635e-04	7.029244e-02	1.968049e+01	2.265815e+00	5.625686e+02	3.195111e-03	3.195111e-03	3.195111e-03	-3.066938e-11
1.413267848901897e-04	7.029546e-02	1.968047e+01	2.314642e+00	5.653071e+02	3.195249e-03	3.195249e-03	3.195249e-03	-3.062020e-11
1.420114152739159e-04	7.033289e-02	1.968030e+01	2.363267e+00	5.680457e+02	3.196950e-03	3.196950e-03	3.196950e-03	-3.056712e-11
1.426960456576420e-04	7.040472e-02	1.967998e+01	2.411691e+00	5.707842e+02	3.200215e-03	3.200215e-03	3.200215e-03	-3.051014e-11
1.475228169096759e-04	7.040472e-02	1.967998e+01	2.747594e+00	5.900912e+02	3.200215e-03	3.200215e-03	3.200215e-03	-3.017422e-11
1.571763594137576e-04	7.040472e-02	1.967998e+01	3.391666e+00	6.287054e+02	3.200215e-03	3.200215e-03	3.200215e-03	-2.953011e-11
1.764834444219071e-04	7.040472e-02	1.967998e+01	4.579045e+00	7.059338e+02	3.200215e-03	3.200215e-03	3.200215e-03	-2.834276e-11
2.150976144382061e-04	7.040472e-02	1.967998e+01	6.615742e+00	8.603904e+02	3.200215e-03	3.200215e-03	3.200215e-03	-2.630609e-11
2.923259544708179e-04	7.040475e-02	1.967998e+01	1.007010e+01	1.169304e+03	3.200216e-03	3.200216e-03	3.200216e-03	-2.285174e-11
3.031180245354204e-04	7.040475e-02	1.967998e+01	1.047675e+01	1.212472e+03	3.200216e-03	3.200216e-03	3.200216e-03	-2.244468e-11
3.300981996969404e-04	7.040474e-02	1.967998e+01	1.135232e+01	1.320393e+03	3.200216e-03	3.200216e-03	3.200216e-03	-1.016061e-11
3.408902697615429e-04	7.040487e-02	1.967998e+01	1.167492e+01	1.363561e+03	3.200222e-03	3.200222e-03	3.200222e-03	1.583847e-10
3.435882872776935e-04	7.040629e-02	1.967997e+01	1.175363e+01	1.374353e+03	3.200284e-03	3.200286e-03	3.200284e-03	1.878158e-09
3.489843223099948e-04	7.041664e-02	1.967993e+01	1.190779e+01	1.395937e+03	3.200742e-03	3.200756e-03	3.200742e-03	1.452864e-08
3.503333310680701e-04	7.043807e-02	1.967983e+01	1.194586e+01	1.401333e+03	3.201690e-03	3.201731e-03	3.201690e-03	4.097491e-08
3.530313485842207e-04	7.057234e-02	1.967924e+01	1.202122e+01	1.412125e+03	3.207626e-03	3.207834e-03	3.207626e-03	2.081886e-07
3.537058529632653e-04	7.067913e-02	1.967876e+01	1.203996e+01	1.414823e+03	3.212340e-03	3.212688e-03	3.212340e-03	3.471799e-07
3.538744790580195e-04	7.074013e-02	1.967850e+01	1.204462e+01	1.415498e+03	3.215028e-03	3.215461e-03	3.215028e-03	4.327803e-07
3.539166355817081e-04	7.076630e-02	1.967838e+01	1.204579e+01	1.415667e+03	3.216176e-03	3.216650e-03	3.216176e-03	4.735824e-07
3.540009486290852e-04	7.083873e-02	1.967806e+01	1.204812e+01	1.416004e+03	3.219349e-03	3.219943e-03	3.219349e-03	5.939419e-07
3.540220268909294e-04	7.086667e-02	1.967794e+01	1.204871e+01	1.416088e+03	3.220567e-03	3.221212e-03	3.220567e-03	6.450512e-07
3.540641834146180e-04	7.094552e-02	1.967760e+01	1.204987e+01	1.416257e+03	3.223996e-03	3.224797e-03	3.223996e-03	8.005865e-07
3.540747225455471e-04	7.097382e-02	1.967748e+01	1.205016e+01	1.416299e+03	3.225219e-03	3.226083e-03	3.225219e-03	8.638031e-07
3.540958008073913e-04	7.104960e-02	1.967715e+01	1.205074e+01	1.416383e+03	3.228479e-03	3.229527e-03	3.228479e-03	1.048840e-06
3.541010703728559e-04	7.107468e-02	1.967704e+01	1.205089e+01	1.416404e+03	3.229550e-03	3.230667e-03	3.229550e-03	1.117668e-06
3.541116095037850e-04	7.113763e-02	1.967678e+01	1.205118e+01	1.416446e+03	3.232223e-03	3.233528e-03	3.232223e-03	1.305567e-06
3.541142442865103e-04	7.115674e-02	1.967670e+01	1.205125e+01	1.416457e+03	3.233030e-03	3.234397e-03	3.233030e-03	1.367964e-06
3.541195138519748e-04	7.120883e-02	1.967648e+01	1.205140e+01	1.416478e+03	3.235199e-03	3.236765e-03	3.235199e-03	1.565775e-06
3.541300529829039e-04	7.134666e-02	1.967591e+01	1.205169e+01	1.416520e+03	3.240870e-03	3.243030e-03	3.240870e-03	2.159527e-06
3.541326877656292e-04	7.139946e-02	1.967570e+01	1.205176e+01	1.416531e+03	3.242983e-03	3.245430e-03	3.242983e-03	2.446614e-06
3.541379573310938e-04	7.154751e-02	1.967512e+01	1.205191e+01	1.416552e+03	3.248776e-03	3.252160e-03	3.248776e-03	3.383493e-06
3.541392747224564e-04	7.160069e-02	1.967492e+01	1.205194e+01	1.416557e+03	3.250777e-03	3.254577e-03	3.250777e-03	3.799167e-06
3.541419095051818e-04	7.174381e-02	1.967440e+01	1.205202e+01	1.416568e+03	3.256000e-03	3.261082e-03	3.256000e-03	5.080439e-06
3.541425682008631e-04	7.179198e-02	1.967423e+01	1.205204e+01	1.416570e+03	3.257681e-03	3.263272e-03	3.257681e-03	5.589254e-06
3.541438855922258e-04	7.191478e-02	1.967382e+01	1.205207e+01	1.416576e+03	3.261815e-03	3.268854e-03	3.261815e-03	7.038463e-06
3.541442149400664e-04	7.195293e-02	1.967369e+01	1.205208e+01	1.416577e+03	3.263046e-03	3.270588e-03	3.263046e-03	7.541115e-06
3.541448736357478e-04	7.206237e-02	1.967337e+01	1.205210e+01	1.416579e+03	3.266302e-03	3.275563e-03	3.266302e-03	9.260123e-06
3.541461910271104e-04	7.236857e-02	1.967253e+01	1.205213e+01	1.416585e+03	3.274727e-03	3.289480e-03	3.274727e-03	1.475367e-05
3.541465203749511e-04	7.250617e-02	1.967221e+01	1.205214e+01	1.416586e+03	3.277892e-03	3.295735e-03	3.277892e-03	1.784335e-05
3.541471790706324e-04	7.294510e-02	1.967133e+01	1.205216e+01	1.416589e+03	3.286706e-03	3.315686e-03	3.286706e-03	2.898006e-05
3.541473437445597e-04	7.315112e-02	1.967101e+01	1.205217e+01	1.416589e+03	3.289923e-03	3.325051e-03	3.289923e-03	3.512789e-05
3.541476730924004e-04	7.382680e-02	1.967013e+01	1.205217e+01	1.416591e+03	3.298742e-03	3.355764e-03	3.298742e-03	5.702358e-05
3.541477554293571e-04	7.414811e-02	1.966982e+01	1.205218e+01	1.416591e+03	3.301853e-03	3.370369e-03	3.301853e-03	6.851840e-05
3.541479201032843e-04	7.519576e-02	1.966899e+01	1.205218e+01	1.416592e+03	3.310125e-03	3.417989e-03	3.310125e-03	1.079070e-04
3.541479612717696e-04	7.566310e-02	1.966871e+01	1.205218e+01	1.416592e+03	3.312871e-03	3.439232e-03	3.312871e-03	1.264136e-04
3.541480436087263e-04	7.710641e-02	1.966802e+01	1.205218e+01	1.416592e+03	3.319795e-03	3.504837e-03	3.319795e-03	1.850525e-04
3.541480641929690e-04	7.766766e-02	1.966781e+01	1.205219e+01	1.416592e+03	3.321914e-03	3.530348e-03	3.321914e-03	2.084475e-04
3.541481053614542e-04	8.027729e-02	1.966720e+01	1.205219e+01	1.416592e+03	3.327954e-03	3.648968e-03	3.327954e-03	3.210547e-04
3.541481876984109e-04	9.082770e-02	1.966554e+01	1.205219e+01	1.416593e+03	3.344600e-03	4.128532e-03	3.344600e-03	7.839461e-04
3.541482082826536e-04	9.877963e-02	1.966494e+01	1.205219e+01	1.416593e+03	3.350582e-03	4.489983e-03	3.350582e-03	1.139413e-03
3.541482494511389e-04	1.391566e-01	1.966338e+01	1.205219e+01	1.416593e+03	3.366161e-03	6.325302e-03	3.366161e-03	2.959238e-03
3.541482835821425e-04	2.309902e-01	1.966190e+01	1.205218e+01	1.416593e+03	3.381006e-03	1.049955e-02	3.381006e-03	7.118746e-03
3.541483205048296e-04	4.911193e-01	1.966018e+01	1.205217e+01	1.416593e+03	3.398150e-03	2.232361e-02	3.398150e-03	1.891916e-02
3.541483594222267e-04	1.064712e+00	1.965857e+01	1.205215e+01	1.416593e+03	3.414321e-03	4.839600e-02	3.414321e-03	4.496787e-02
3.541484065394673e-04	2.103269e+00	1.965704e+01	1.205209e+01	1.416594e+03	3.429605e-03	9.560313e-02	3.429605e-03	9.216300e-02
