Circuit: * C:\users\eg\Desktop\hdd\Documents\UTN\2023\Dispositivos\TPS\4\Simulaciones\CircuitoCuartaParte.asc

.step rd=1500
Direct Newton iteration for .op point succeeded.
Semiconductor Device Operating Points:
                        --- JFET Transistors ---
Name:      j1
Model:     jx
Id:      2.36e-03
Vgs:    -2.00e+00
Vds:     1.65e+01
Gm:      2.62e-03
Gds:     0.00e+00
Cgs:     0.00e+00
Cgd:     0.00e+00


.step rd=3300
.step rd=10000

Date: Mon Sep 18 15:32:39 2023
Total elapsed time: 0.162 seconds.

tnom = 27
temp = 27
method = trap
totiter = 5
traniter = 0
tranpoints = 0
accept = 0
rejected = 0
matrix size = 5
fillins = 0
solver = Normal
Avg thread counts: 8.0/0.0/8.0/8.0
Matrix Compiler1: 132 bytes object code size
Matrix Compiler2: 301 bytes object code size
